! Touchstone file exported from HFSS 2019.1.0
!        File:           C:/Users/33202/Desktop/HFSS script/1d2line_test.aedt
!        Generated:      9:32:37 上午  5月 20, 2026
!        Design:         StackupDesign
!        Project:        1d2line_test
!        Setup:          Setup1
!        Solution:       Sweep1
!
! Variables:
!        Position_via_L11 = position_L16
!        Position_via_L16 = position_L16
!        Position_via_L4 = position_L8
!        Position_via_L8 = position_L9
!        Position_via_L9 = position_L11
!        R_L10_pad_out = R_micro_pad
!        R_L11_pad_in = R_micro_pad
!        R_L11_pad_out = R_micro_pad
!        R_L12_pad_out = R_micro_pad
!        R_L13_pad_out = R_micro_pad
!        R_L14_pad_out = R_micro_pad
!        R_L15_pad_out = R_micro_pad
!        R_L16_pad_in = R_bottom_pad
!        R_L16_pad_out = R_bottom_pad
!        R_L4_pad_in = R_micro_pad
!        R_L4_pad_out = R_micro_pad
!        R_L5_pad_out = R_micro_pad
!        R_L6_pad_out = R_micro_pad
!        R_L7_pad_out = R_micro_pad
!        R_L8_pad_in = R_micro_c_pad
!        R_L8_pad_out = R_core_pad
!        R_L9_pad_in = R_core_pad
!        R_L9_pad_out = R_micro_c_pad
!        R_anti_L11 = R_micro_anti
!        R_anti_L16 = R_bottom_anti
!        R_anti_L4 = R_micro_anti
!        R_anti_L8 = R_core_anti
!        R_anti_L9 = R_micro_anti
!        R_anti_pcb = 400um
!        R_bottom_anti = 450um
!        R_bottom_pad = 150um
!        R_core_anti = 180um
!        R_core_pad = 100um
!        R_core_via = 50um
!        R_micro_anti = 90um
!        R_micro_c_anti = 100um
!        R_micro_c_pad = 50um
!        R_micro_c_via = 30um
!        R_micro_pad = 45um
!        R_micro_via = 30um
!        R_pad_pcb = 150um
!        R_via_pcb = 50um
!        Trace_width_L11 = trace_width
!        Trace_width_L16 = trace_width
!        Trace_width_L4 = trace_width
!        Trace_width_L8 = trace_width
!        Trace_width_L9 = trace_width
!        diameter_bga = 300um
!        diameter_bga_top = 275um
!        gnd_via_gap = 2
!        layer_bottom_anti = 11
!        layer_core_lower_anti = 9
!        layer_core_upper_anti = 8
!        length_whole = 3000um
!        pitch_L10_out = pitch_L11_in
!        pitch_L11_in = 400um
!        pitch_L11_out = pitch_L16_in
!        pitch_L12_out = pitch_L16_in
!        pitch_L13_out = pitch_L16_in
!        pitch_L14_out = pitch_L16_in
!        pitch_L15_out = pitch_L16_in
!        pitch_L16_in = 500um
!        pitch_L16_out = pitch_bga_x
!        pitch_L4_in = trace2trace+trace_width
!        pitch_L4_out = pitch_L8_in
!        pitch_L5_out = pitch_L8_in
!        pitch_L6_out = pitch_L8_in
!        pitch_L7_out = pitch_L8_in
!        pitch_L8_in = 500um
!        pitch_L8_out = pitch_L9_in
!        pitch_L9_in = 500um
!        pitch_L9_out = pitch_L11_in
!        pitch_bga_x = 600um
!        pitch_bga_y = 600um
!        position_L1 = position_L2+thick_L2+thick_dielectric_L1_L2
!        position_L10 = position_L11+thick_L11+thick_dielectric_L10_L11
!        position_L11 = position_L12+thick_L12+thick_dielectric_L11_L12
!        position_L12 = position_L13+thick_L13+thick_dielectric_L12_L13
!        position_L13 = position_L14+thick_L14+thick_dielectric_L13_L14
!        position_L14 = position_L15+thick_L15+thick_dielectric_L14_L15
!        position_L15 = position_L16+thick_L16+thick_dielectric_L15_L16
!        position_L16 = 0um
!        position_L2 = position_L3+thick_L3+thick_dielectric_L2_L3
!        position_L3 = position_L4+thick_L4+thick_dielectric_L3_L4
!        position_L4 = position_L5+thick_L5+thick_dielectric_L4_L5
!        position_L5 = position_L6+thick_L6+thick_dielectric_L5_L6
!        position_L6 = position_L7+thick_L7+thick_dielectric_L6_L7
!        position_L7 = position_L8+thick_L8+thick_dielectric_L7_L8
!        position_L8 = position_L9+thick_L9+thick_dielectric_L8_L9
!        position_L9 = position_L10+thick_L10+thick_dielectric_L9_L10
!        position_pcb_L1 = -thick_bga
!        position_pcb_L2 = position_pcb_L1+thick_pcb_L1+thick_pcb_dielectric_L1_L2
!        position_pcb_L3 = position_pcb_L2+thick_pcb_L2+thick_pcb_dielectric_L2_L3
!        position_pcb_L4 = position_pcb_L3+thick_pcb_L3+thick_pcb_dielectric_L3_L4
!        stack_type = 727
!        thick_L1 = thick_metal
!        thick_L10 = thick_metal
!        thick_L11 = thick_metal
!        thick_L12 = thick_metal
!        thick_L13 = thick_metal
!        thick_L14 = thick_metal
!        thick_L15 = thick_metal
!        thick_L16 = thick_metal
!        thick_L2 = thick_metal
!        thick_L3 = thick_metal
!        thick_L4 = thick_metal
!        thick_L5 = thick_metal
!        thick_L6 = thick_metal
!        thick_L7 = thick_metal
!        thick_L8 = thick_core_metal
!        thick_L9 = thick_core_metal
!        thick_bga = 230um
!        thick_core = 400um
!        thick_core_metal = 22um
!        thick_dielectric = 30um
!        thick_dielectric_L10_L11 = thick_dielectric
!        thick_dielectric_L11_L12 = thick_dielectric
!        thick_dielectric_L12_L13 = thick_dielectric
!        thick_dielectric_L13_L14 = thick_dielectric
!        thick_dielectric_L14_L15 = thick_dielectric
!        thick_dielectric_L15_L16 = thick_dielectric
!        thick_dielectric_L1_L2 = thick_dielectric
!        thick_dielectric_L2_L3 = thick_dielectric
!        thick_dielectric_L3_L4 = thick_dielectric
!        thick_dielectric_L4_L5 = thick_dielectric
!        thick_dielectric_L5_L6 = thick_dielectric
!        thick_dielectric_L6_L7 = thick_dielectric
!        thick_dielectric_L7_L8 = thick_dielectric
!        thick_dielectric_L8_L9 = thick_core
!        thick_dielectric_L9_L10 = thick_dielectric
!        thick_metal = 18um
!        thick_pcb = position_pcb_L4-position_pcb_L1+thick_pcb_L4
!        thick_pcb_L1 = -thick_pcb_metal
!        thick_pcb_L2 = -thick_pcb_metal
!        thick_pcb_L3 = -thick_pcb_metal
!        thick_pcb_L4 = -thick_pcb_metal
!        thick_pcb_dielectric = 85um
!        thick_pcb_dielectric_L1_L2 = -thick_pcb_dielectric
!        thick_pcb_dielectric_L2_L3 = -thick_pcb_dielectric
!        thick_pcb_dielectric_L3_L4 = -thick_pcb_dielectric
!        thick_pcb_metal = 50um
!        thick_pkg = position_L1+thick_L1
!        thick_solder = 22um
!        thick_via_L11 = position_L11-position_L16+thick_L11
!        thick_via_L16 = position_L11-position_L16+thick_L11
!        thick_via_L4 = position_L4-position_L8+thick_L4
!        thick_via_L8 = position_L8-position_L9+thick_L8
!        thick_via_L9 = position_L9-position_L11+thick_L9
!        trace2shape = 69um
!        trace2trace = 69um
!        trace_in = 4
!        trace_in_pcb = 1
!        trace_pitch = trace2trace+trace_width
!        trace_width = 30um
!        ys_L10_out = ys_L11_in
!        ys_L11_in = -100um
!        ys_L11_out = ys_L16_in
!        ys_L12_out = ys_L16_in
!        ys_L13_out = ys_L16_in
!        ys_L14_out = ys_L16_in
!        ys_L15_out = ys_L16_in
!        ys_L16_in = 100um
!        ys_L16_out = ys_bga
!        ys_L4_in = length_whole/2
!        ys_L4_out = ys_L8_in
!        ys_L5_out = ys_L8_in
!        ys_L6_out = ys_L8_in
!        ys_L7_out = ys_L8_in
!        ys_L8_in = 50um
!        ys_L8_out = ys_L9_in
!        ys_L9_in = 0um
!        ys_L9_out = ys_L11_in
!        ys_bga = 200um
!
# GHZ S MA R 50.000000
! Terminal data exported
! Port[1] = signal_pkg_L4_trace_N_T1
! Port[2] = signal_pkg_L4_trace_P_T1
! Port[3] = signal_BGA_P_0_T1
! Port[4] = signal_BGA_N_0_T1
! Port[5] = Polyline_N_T1
! Port[6] = Polyline_P_T1
0.1              0.56663895       173.68973        0.24386483       165.31159        0.24379615       166.18598        0.43600366       5.7406586        
                0.43501826       5.6497907        0.24435565       166.16873        
                0.24386483       165.31159        0.57676043       172.89103        0.42787538       7.069423         0.24379985       166.18759        
                0.2442413        166.16184        0.42673092       6.9832318        
                0.24379615       166.18598        0.42787537       7.069423         0.57798466       173.73783        0.24425979       166.30808        
                0.24455734       166.47991        0.42717564       7.3780397        
                0.43600366       5.7406586        0.24379985       166.18759        0.24425979       166.30808        0.5678471        174.5373         
                0.43547297       6.0449407        0.24467554       166.48846        
                0.43501826       5.6497908        0.2442413        166.16184        0.24455734       166.47991        0.43547297       6.0449407        
                0.56830317       174.47017        0.24522556       166.43188        
                0.24435565       166.16873        0.42673091       6.9832318        0.42717564       7.3780396        0.24467554       166.48846        
                0.24522556       166.43188        0.57874626       173.67499        

0.2              0.54831478       165.20203        0.24109601       146.25106        0.23962374       147.89552        0.47568705       12.62471         
                0.47478223       12.468548        0.2401774        147.75971        
                0.24109601       146.25106        0.55347802       164.59724        0.47401          13.496905        0.23961039       147.8906         
                0.24004722       147.77761        0.47288363       13.381739        
                0.23962374       147.89552        0.47401          13.496905        0.55498163       166.27134        0.24114554       148.18769        
                0.2407586        148.42944        0.47335024       14.176425        
                0.47568705       12.62471         0.23961039       147.8906         0.24114554       148.18769        0.55004626       166.86814        
                0.47456974       13.266706        0.2408298        148.41038        
                0.47478223       12.468548        0.24004722       147.77761        0.2407586        148.42944        0.47456974       13.266706        
                0.5501181        166.66719        0.24159972       148.19836        
                0.2401774        147.75971        0.47288363       13.381739        0.47335024       14.176425        0.2408298        148.41038        
                0.24159972       148.19836        0.55531376       166.0577         

0.3              0.4893907        158.78787        0.208098         127.29196        0.2044277        129.63007        0.5499635        13.101207        
                0.54859655       12.901382        0.20487125       129.51703        
                0.208098         127.29196        0.49327254       158.27765        0.54914979       13.706192        0.20443043       129.63309        
                0.20486499       129.53579        0.54781294       13.511827        
                0.2044277        129.63007        0.54914979       13.706192        0.49495211       160.75447        0.20762546       130.13125        
                0.20624785       130.51369        0.54845654       14.714889        
                0.5499635        13.101207        0.20443043       129.63309        0.20762546       130.13125        0.49106766       161.26392        
                0.54924005       14.109687        0.2062572        130.49855        
                0.54859655       12.901382        0.20486499       129.53579        0.20624785       130.51369        0.54924005       14.109687        
                0.49084075       161.01555        0.20707334       130.27016        
                0.20487125       129.51703        0.54781294       13.511827        0.54845654       14.714889        0.2062572        130.49855        
                0.20707334       130.27016        0.49471672       160.49463        

0.4              0.4345101        157.20906        0.16747414       114.81364        0.16159617       117.84484        0.59773106       9.676247         
                0.59604117       9.4309026        0.1622604        117.77675        
                0.16747414       114.81364        0.43724624       156.6513         0.59761788       10.163139        0.16160087       117.84849        
                0.1622825        117.78463        0.59590906       9.917357         
                0.16159617       117.84484        0.59761788       10.163139        0.43894585       159.90866        0.16636364       118.50871        
                0.16423459       119.06074        0.59682937       11.520203        
                0.59773106       9.676247         0.16160087       117.84849        0.16636364       118.50871        0.43620837       160.46802        
                0.59694862       11.033431        0.16421728       119.05627        
                0.59604117       9.4309026        0.1622825        117.78463        0.16423459       119.06074        0.59694862       11.033431        
                0.43616303       160.15041        0.1654327        118.82886        
                0.1622604        117.77675        0.59590906       9.917357         0.59682937       11.520203        0.16421728       119.05627        
                0.1654327        118.82886        0.43889197       159.59495        

0.5              0.40226384       157.7597         0.1377208        107.76688        0.12985263       111.54142        0.61951711       6.3841814        
                0.61764345       6.098925         0.13081224       111.49103        
                0.1377208        107.76688        0.40386085       157.19708        0.61990723       6.7807856        0.12985881       111.54616        
                0.13083588       111.48991        0.617991         6.4947404        
                0.12985263       111.54142        0.61990723       6.7807856        0.40551736       161.22607        0.13601672       112.29148        
                0.13328462       113.02026        0.61919676       8.490348         
                0.61951711       6.3841814        0.12985881       111.54616        0.13601672       112.29148        0.40391712       161.79016        
                0.61885287       8.0946414        0.13326755       113.02577        
                0.61764345       6.098925         0.13083588       111.48991        0.13328462       113.02026        0.61885287       8.0946414        
                0.40394717       161.36864        0.13492713       112.76954        
                0.13081224       111.49103        0.617991         6.4947404        0.61919676       8.490348         0.13326756       113.02577        
                0.13492714       112.76954        0.40558981       160.81314        

0.6              0.38418257       158.49966        0.11817474       103.3639         0.10843956       107.92253        0.6300396        3.8084465        
                0.62808158       3.4833922        0.10968852       107.8569         
                0.11817474       103.3639         0.38497662       157.97219        0.63072644       4.1360567        0.10844653       107.92798        
                0.1097074        107.84939        0.62871126       3.8110926        
                0.10843956       107.92253        0.63072644       4.1360567        0.38656025       162.76906        0.11591163       108.6849         
                0.11261685       109.58916        0.63019789       6.1952789        
                0.6300396        3.8084465        0.10844653       107.92798        0.11591163       108.6849         0.38577103       163.29808        
                0.62956063       5.8689008        0.11260484       109.60151        
                0.62808158       3.4833922        0.1097074        107.84939        0.11261685       109.58916        0.62956063       5.8689008        
                0.38571559       162.76288        0.11470041       109.2861         
                0.10968852       107.8569         0.62871126       3.8110926        0.63019789       6.1952789        0.11260484       109.60151        
                0.11470041       109.2861         0.38658732       162.24194        

0.7              0.37306944       158.96967        0.10502124       100.07377        0.093470072      105.42665        0.6360743        1.7423125        
                0.63408245       1.3773143        0.094987454      105.31949        
                0.10502124       100.07377        0.373324         158.49235        0.63693048       2.0164836        0.093478116      105.4326         
                0.09500244       105.30806        0.63487944       1.6522382        
                0.093470072      105.42665        0.63693048       2.0164836        0.3748028        164.0543         0.10221768       106.14783        
                0.098359128      107.21886        0.63664614       4.4223313        
                0.6360743        1.7423125        0.093478116      105.4326         0.10221768       106.14783        0.37455478       164.53322        
                0.63584627       4.1492557        0.098351958      107.23539        
                0.63408245       1.3773143        0.09500244       105.30806        0.098359128      107.21886        0.63584627       4.1492557        
                0.37431362       163.88588        0.1008676        106.83953        
                0.094987454      105.31949        0.63487944       1.6522382        0.63664614       4.4223313        0.098351958      107.23539        
                0.1008676        106.83953        0.37466085       163.41228        

0.8              0.36550085       159.16627        0.095701523      97.269444        0.082353853      103.39991        0.64010079       -0.0079592315    
                0.6381129        -0.41287378      0.084121416      103.23308        
                0.095701523      97.269444        0.36539724       158.74228        0.64104992       0.22405051       0.082362824      103.40584        
                0.084134706      103.2191         0.63900321       -0.1801581       
                0.082353853      103.39991        0.64104992       0.22405051       0.36673346       165.06681        0.092366906      104.04329        
                0.08793345       105.26682        0.64105316       2.9739419        
                0.64010079       -0.0079592317    0.082362824      103.40584        0.092366906      104.04329        0.36684443       165.49383        
                0.64015518       2.7416291        0.08792916       105.28544        
                0.6381129        -0.41287379      0.084134706      103.2191         0.08793345       105.26682        0.64015518       2.7416291        
                0.36635234       164.73778        0.090853689      104.7981         
                0.084121416      103.23308        0.63900321       -0.1801581       0.64105316       2.9739419        0.08792916       105.28544        
                0.090853689      104.7981         0.36634201       164.31392        

0.9              0.35994326       159.15844        0.088776249      94.71852         0.073640352      101.59318        0.64306155       -1.5590888       
                0.64110606       -2.0044392       0.075645224      101.35391        
                0.088776249      94.71852         0.35960446       158.78472        0.64405568       -1.3610536       0.073649852      101.59895        
                0.075658291      101.33814        0.64204154       -1.8057665       
                0.073640352      101.59318        0.64405568       -1.3610536       0.36075697       165.86978        0.084916143      102.13302        
                0.079895926      103.49074        0.64438073       1.7308911        
                0.64306155       -1.5590888       0.073649852      101.59895        0.084916143      102.13302        0.36110818       166.24773        
                0.64342433       1.5320315        0.079892478      103.5104         
