! Touchstone file from project SAS 2
! Exported from Circuit Design 6.1.0
# GHZ S MA R 50.000000
! Modal data exported
! Port[1] = Port1
! Port[2] = Port2
! Port[3] = Port3
! Port[4] = Port4
0                0.00177155277859014 180              0.000289484501220287 0                0.993153140859237 0                0.000524281678973332 180              
                0.00174702512972777 0                0.00211358504563456 0                0.00158525293035382 180              0.996911783132983 0                
                0.994186744520541 0                0.00142005937288201 0                0.00144087509835297 0                0.00292464032494205 0                
                0.000126527783275074 0                0.993592676993379 0                0.003216932338622 0                0.00193765919013073 0                

0.01             0.00178457447019978 173.063362048262 0.000638185215943841 62.8620452909116 0.993152913348561 -0.153480410946191 0.000548141886633123 -163.242574716727 
                0.00183621682342479 17.7687781355085 0.00211811375892041 3.78340165666618 0.00159257786044941 -174.709736007265 0.996911347610844 -0.154616614961462 
                0.994186493527349 -0.153975530576806 0.00143031488067125 -7.08874843291289 0.00145371679557438 7.25172072147387 0.00297829866377411 10.7351744137643 
                0.00020592282477518 -52.2998657144124 0.99359232226188 -0.153508416288546 0.00326551320096352 9.7395293773163  0.00194408796660942 4.24450127181263 

0.02             0.00182308232106935 166.323298700935 0.00117375791796791 75.3964056044212 0.993152230818125 -0.30696075449512 0.000614185296184378 -149.0277899664  
                0.00208097768059176 32.5853592667193 0.00213164275938325 7.53513043319738 0.00161435307732294 -169.5188957317  0.9969100410553  -0.309233019240249 
                0.994185740550632 -0.3079509767689 0.00146064908276479 -13.9857790309107 0.00149158072587739 14.2432104581584 0.00313376380797075 20.7353647137335 
                0.000348695096606022 -69.1466178198065 0.993591258073087 -0.307016686337328 0.0034071003598299 18.9215605171146 0.00196324940244668 8.42838653407115 

0.03             0.00188551764093547 159.94483154695  0.00173062217624989 79.8826852066102 0.993151093272935 -0.460440963258649 0.000710747028976623 -138.161556200617 
                0.0024348292226391 43.6628015332908 0.00215400421006305 11.2250923023406 0.00165000607792211 -164.516520384353 0.996907863498913 -0.46384900215538 
                0.994184485598938 -0.461926254199961 0.00150985125592328 -20.5296711500143 0.00155264324152988 20.7639238832595 0.00337699866282451 29.5256175896271 
                0.000503546696354857 -76.0810483129544 0.993589484444087 -0.460524663904511 0.00363082454834113 27.1567414019928 0.00199478077464416 12.4956484937336 

0.04             0.00196960975255617 154.041555389369 0.00229330913132973 82.0974399442357 0.993149500721189 -0.613920969836125 0.000827205734827347 -130.170979807774 
                0.00285751921713394 51.6607054009782 0.00218492981022459 14.8261591812115 0.00169866244295104 -159.773455732305 0.996904814996001 -0.618464353044354 
                0.994182728686551 -0.615901278486451 0.00157615378988345 -26.6085443764932 0.00163431546875533 26.6811260904866 0.00369068162948898 36.9567914752795 
                0.000662052551439585 -79.8273897178263 0.993587001403378 -0.614032202756135 0.00392264944289651 34.2824467733173 0.00203811483649728 16.3986551022558 

0.05             0.00207272904325882 148.671800210563 0.00285836992330932 83.3738854701654 0.993147453174473 -0.767400706832217 0.000956317241740176 -124.295728802008 
                0.00332286980058233 57.4681357220404 0.00222406627834512 18.3152145792864 0.00175924248798803 -155.338567176994 0.996900895622534 -0.773078861254397 
                0.994180469833457 -0.769875965251735 0.0016575036832164 -32.164034061117 0.00173369950082679 31.9404973845436 0.0040584993761676 43.1077501711801 
                0.000822098586207791 -82.2030322600619 0.993583808990814 -0.767539156656057 0.00426862087988759 40.3153050571628 0.00209252771354208 20.1005051868751 

0.06             0.00219219768623926 143.847159413194 0.00342461657201361 84.1748250830697 0.993144950647664 -0.92088010684952 0.00109360645882021 -119.906703445983 
                0.00381529067299093 61.773159311032  0.0022709941199569 21.6737779501077 0.00183056145185174 -151.238934480333 0.996896105476267 -0.927692316164278 
                0.99417770906538 -0.923850230121062 0.00175180327068451 -37.1833558457929 0.00184795477378552 36.5484371627245 0.00446708648135542 48.1586797245169 
                0.000982929412885496 -83.8718848878034 0.993579907257684 -0.921045379379726 0.00465667432084816 45.3694385155034 0.00215719276352978 23.5758166632998 

0.07             0.00232550374362498 139.546408231994 0.0039915306498091 84.7021503514668 0.993141993158914 -1.07435910249128 0.00123634903042346 -116.561034107905 
                0.00432553345125782 65.0410080376752 0.00232524757464972 24.8882038794393 0.0019114160596144 -147.482884988988 0.996890444676599 -1.08230450717555 
                0.994174446413722 -1.07782398872763 0.00185707788176753 -41.6860331421483 0.00197451843062793 40.5491792598063 0.00490625325131069 52.3075367962129 
                0.00114421064554715 -85.1303145848919 0.99357529626664 -1.07455072470465 0.0050771568196695 49.591853871365  0.00223123243090054 26.8101637130551 

0.08             0.00247041537150755 135.729132453128 0.00455884891551316 85.0577673021521 0.993138580729685 -1.22783762635462 0.00138285397884962 -113.959902744757 
                0.00484796030085037 67.5773835505656 0.00238633387243318 27.9495143230667 0.00200064873780143 -144.064386968352 0.996883913364664 -1.2369152237283 
                0.994170681915592 -1.23179715670535 0.00197156685670715 -45.7107372141008 0.00211119683372022 44.0052982535079 0.00536848450686409 55.7320730731959 
                0.00130577177396314 -86.1297887229175 0.99356997609174 -1.22805504641793 0.00552265202258868 53.1264453135419 0.00231376248410865 29.7985940165008 

0.09             0.00262501905159843 132.346287919057 0.00512642255626271 85.2986134926902 0.993134713384757 -1.38131561103785 0.0015320389177271 -111.90176976642 
                0.00537900787616883 69.5847593731409 0.00245375040908244 30.8529591126456 0.00209718836979269 -140.967578459739 0.996876511703289 -1.39152425530184 
                0.994166415613834 -1.38576964969588 0.00209375553135347 -49.3049788698045 0.00225617280682042 46.9844327939329 0.00584829728467691 58.5788237711817 
                0.00146751663558709 -86.9555757531121 0.993563946818438 -1.38155819831479 0.00598756444477604 56.0990544085485 0.00240392588669711 32.5436954458248 

0.1              0.00278771104199186 129.347193621763 0.0056941602859546 85.4589781413251 0.993130391152205 -1.53479298913518 0.00168318788099523 -110.248611836577 
                0.00591634037001747 71.2000247673323 0.00252699901492705 33.5974105061927 0.00220007115511326 -138.170694092987 0.996868239876974 -1.54613139142362 
                0.994161647556974 -1.53974138334795 0.00222237035051588 -52.5182039054451 0.0024079696875679 49.5516515752408 0.00634168474017379 60.9640095162646 
                0.00162938671531461 -87.6592794217048 0.993557208543567 -1.53506003420227 0.00646769244498387 58.6139494012072 0.00250091598255388 35.0535973144317 

0.11             0.0029571654537155 126.683575180168 0.00626200231001418 85.560737334195  0.993125614063413 -1.68826969323963 0.00183581221526431 -108.903936114589 
                0.00645837402711024 72.517983675107  0.00260559701178133 36.1846877803225 0.00230844688893784 -135.649097620611 0.99685909809192 -1.70073642167276 
                0.994156377799255 -1.69371227331785 0.00235635517977833 -55.39774605589  0.00256539960247615 51.7657964082349 0.0068456943576773 62.9783522024516 
                0.00179134420593066 -88.2739340189424 0.99354976137536 -1.68856040789858 0.00695987144415696 60.7552979138985 0.00260399024735522 37.3401579828098 

0.12             0.00313229411163711 124.311551491314 0.00682990725024628 85.6185018648566 0.993120382153069 -1.84174565594037 0.00198956873898374 -107.798808752387 
                0.00700400194201458 73.605887190454  0.00268908515165942 38.6188866043867 0.00242157580852142 -133.377419980275 0.99684908657599 -1.8553391356875 
                0.994150606400621 -1.84768223527014 0.00249484069150973 -57.9867969798718 0.00272751085303491 53.6782354360167 0.00735812513716791 64.692386476286  
                0.00195336345080468 -88.8216566091163 0.993541605433445 -1.84205917323454 0.00746170029814146 62.5902820221238 0.00271247658027888 39.4174637991938 

0.13             0.00331220656663932 122.192342792958 0.00739784508247282 85.6424006824262 0.993114695459169 -1.995220809824  0.00214421017304521 -106.882945025266 
                0.00755242937375568 74.5125276173818 0.00277703278673984 40.9057633497114 0.00253882010935019 -131.330945026206 0.996838205578708 -2.00993932317034 
                0.99414433342672 -2.00165118487999 0.00263711348671451 -60.323645009211 0.00289354101690473 55.3329098543305 0.00787731483364229 66.161084237555  
                0.00211542630259443 -89.3178076596487 0.993532740848831 -1.9955561840563 0.00797133944866254 64.1723692811745 0.0028257742137598 41.3006707005332 

0.14             0.00349617414353408 120.292258597016 0.00796579309168668 85.639676283555  0.993108554023018 -2.14869508747222 0.00229955421532087 -106.118944202333 
                0.0081030719362244 75.2740421581706 0.00286904074611067 43.0522021116517 0.00265963301706268 -129.486425627901 0.996826455371259 -2.16453677389322 
                0.994137558948899 -2.15561903783056 0.0027825881178102 -62.441638113253 0.00306287779642853 56.7669843425914 0.00840199121731088 67.4275397943472 
                0.00227751945690639 -89.7733855342978 0.993523167763927 -2.1490512942247 0.00848736443227892 65.5441900989903 0.00294335107196093 43.0051634694546 

0.15             0.00368359933710781 118.582324002261 0.00853373344096272 85.6156441544606 0.993101957889231 -2.30216842146468 0.00245546369358808 -105.478488856739 
                0.00865549072062445 75.9176993525948 0.00296474242321428 45.0657747853449 0.00278354725263122 -127.82249983856 0.99681383624646 -2.31913127770546 
                0.994130283044202 -2.30958570981824 0.00293078314081385 -64.3695173591735 0.00323502747317007 58.0117147308444 0.00893116771240775 68.5257944271499 
                0.00243963284603686 -90.1964709491563 0.993512886332527 -2.30254435761923 0.00900866001950929 66.7398884913763 0.00306473902260997 44.5459813302158 

0.16             0.00387399056205719 117.037756906076 0.00910165165001361 85.5742934940467 0.993094907105728 -2.45564074437639 0.00261183348959502 -104.939789111854 
                0.00920934979034409 76.464424743152  0.00306380354437095 46.9543926364919 0.00291016395027369 -126.319843363804 0.996800348518766 -2.47372262453685 
                0.994122505795372 -2.46355111655106 0.00308130127235279 -66.1319087667881 0.00340958997676894 59.0933347256683 0.00946406957128283 69.4829654754569 
                0.00260175863192583 -90.5931335378897 0.99350189671981 -2.45603522813597 0.00953434353103209 67.7869764560207 0.00318952807331111 45.9374519563038 

0.17             0.00406694169263878 115.63741337902  0.00966953560968681 85.5186764671386 0.993087401723746 -2.60911198877717 0.00276858171466042 -104.485830123254 
                0.00976438762449763 76.9305216960169 0.0031659210219342 48.7260407687868 0.00303914256397187 -124.961158579187 0.996785992524242 -2.62831060440513 
                0.994114227290842 -2.61751517374897 0.00323381325561406 -67.7498550154884 0.00358623937353979 60.0338709947062 0.0100000810972407 70.3208425842616 
                0.0027638905529342 -90.968020397015 0.993490199102356 -2.60952375969157 0.0100637089463478 68.7077727668714 0.00331736022504353 47.1929801418864 

0.18             0.00426211564845561 114.363260599816 0.0102373749244184 85.4511680025776 0.993079441797833 -2.76258208723303 0.00292564362260588 -104.103147732805 
                0.0103203974917479 77.3288674022531 0.00327082121822025 50.3885835620181 0.00317019197260344 -123.73106953404 0.996770768620554 -2.78289500742224 
                0.994105447624739 -2.77147779714617 0.00338804488043624 -69.241325912292 0.00376470865681916 60.8518533485276 0.0105387074758417 71.0570854184604 
                0.0029260234874895 -91.3247494971656 0.993477793668122 -2.76300980622374 0.0105961858311755 69.5205119153877 0.00344792343377003 48.3249461904506 

0.19             0.00445923129021866 113.199903491646 0.0108051604620262 85.3736437155322 0.993071027385851 -2.91605097230516 0.00308296732650284 -103.780958016715 
                0.0108772136816998 77.6697595846216 0.00337825787065348 51.9496283175523 0.00330306280546162 -122.615968784841 0.99675467718696 -2.93747562379892 
                0.99409616689688 -2.92543890249172 0.0035437665964029 -70.6216799084964 0.00394477789345718 61.5629154069139 0.011079546840879 71.7061261856792 
                0.0030881531550494 -91.6661794471727 0.993464680616456 -2.91649322169274 0.0111313088737174 70.2401979507068 0.0035809459417175 49.3446788457064 

0.2              0.00465805297360312 112.134173080997 0.0113728840383866 85.2876045494347 0.993062158548973 -3.06951857654871 0.00324051072963286 -103.510528279477 
                0.0114347016642411 77.9615261987234 0.00348800986214525 53.4164350191901 0.00343754091099814 -121.603845020922 0.996737718624287 -3.09205224385069 
                0.994086385212763 -3.07939840554923 0.00370078521629923 -71.904067363573 0.00412626496592456 62.1802940813766 0.0116222695881679 72.2798539534857 
                0.00325027590650601 -91.9945986706578 0.993450860158093 -3.06997386008146 0.0116686950691899 70.8792634193043 0.00371619111076205 50.2624765159352 

0.21             0.00485838221565443 111.154775363427 0.0119405381921168 85.1942658635574 0.993052835351695 -3.22298483251416 0.00339823928986086 -103.284715616088 
                0.0119927509364879 78.210971392113  0.00359987896599814 54.7958615495192 0.00357344184708613 -120.684108925058 0.996719893354912 -3.24662465800453 
                0.994076102683572 -3.23335622209949 0.0038589372861129 -73.099775793744 0.00430901831486998 62.7152409867061 0.0121666028801644 72.7881372918247 
                0.00341238857429313 -92.3118607371447 0.993436332515153 -3.22345157539903 0.012208026464575 71.4480800739618 0.00385345280689555 51.08765792188   

0.22             0.00506005103151915 110.251995233147 0.0125081160206393 85.0946222595535 0.993043057861829 -3.37644967274584 0.00355612436643373 -103.097623648761 
                0.0125512697427425 78.4237064250193 0.00371368765196015 56.0943354208928 0.00371060625799119 -119.847427131606 0.996701201822755 -3.40119265680411 
                0.994065319426171 -3.38731226793988 0.00401808377604471 -74.2185218276848 0.00449291122338046 63.1773596690132 0.0127123189105861 73.2392265434363 
                0.00357448836328914 -92.619482911107 0.993421097921143 -3.37692622168038 0.0127490369823087 71.9553568551739 0.00399255133369481 51.8286290352388 

0.23             0.00526291658919626 109.417448520205 0.0130756110589749 84.9894955191576 0.993032826150506 -3.5299130297815 0.00371414198049315 -102.944343860757 
                0.0131101811219513 78.6043985036351 0.00382927700763076 57.3178447847822 0.00384889600686247 -119.085569318414 0.996681644493249 -3.55575603091518 
                0.994054035563097 -3.54126645888496 0.00417810581622066 -75.2686963053306 0.00467783729169147 63.5748815171497 0.0132592259232313 73.6400659079943 
                0.00373657277010996 -92.9187190724363 0.99340515662095 -3.53039765298794 0.013291502264291 72.4084519195363 0.00413332988368718 52.4929574471316 

0.24             0.00546685690470464 108.643875056906 0.0136430171888345 84.8795705719786 0.99302214029218 -3.68337483615351 0.00387227187393889 -102.820758340088 
                0.013669419910618 78.7569601888994 0.00394650480609561 58.4719430305068 0.00398819094431839 -118.391270495119 0.99666122185333 -3.71031457113215 
                0.994042251222564 -3.6952187107693 0.00433890125856993 -76.2575692281729 0.00486370683435291 63.9148915396444 0.0138071612701748 73.9965374761252 
                0.00389863952254656 -93.2106144585152 0.993388508870847 -3.68386572341352 0.013835231773263 72.8136188503341 0.0042756514619616 53.0874483902242 

0.25             0.00567176736013583 107.924966227174 0.0142103285695019 84.7654228405892 0.993011000364627 -3.83683502438728 0.00403049678648994 -102.723387683191 
                0.014228930443229 78.8846952087026 0.00406524373420216 59.5617626044061 0.00412838620851306 -117.75810879141 0.996639934411409 -3.86486806838311 
                0.994029966538454 -3.84916893944658 0.00450038189315148 -77.191460844631 0.00505044399536736 64.2035133918856 0.0143559859957819 74.3136535316746 
                0.00406068653351101 -93.4960473022755 0.993371154938489 -3.8373302870787 0.0143800625968391 73.1762022033939 0.00441939623087554 53.6182188073691 

0.26             0.00587755787428137 107.255221242217 0.0147775395846726 84.6475392816145 0.99299940644895 -3.99029352700062 0.00418880189434647 -102.649272512094 
                0.0147886647685722 78.9904118869182 0.00418537978459943 60.5920347638667 0.00426938996721067 -117.18039806563 0.996617782697356 -4.01941631373694 
                0.994017181650312 -4.00311706079042 0.00466247118421924 -78.0758844431252 0.00523798442481167 64.4460613699576 0.0149055805737299 74.5957092280265 
                0.00422271186559267 -93.7757608843559 0.99335309510291 -3.99079119813777 0.0149258545472779 73.5007938250572 0.00456445922449697 54.0907673478767 

0.27             0.00608415059266339 106.629827224399 0.015344644801098 84.5263347554635 0.992987358629579 -4.14375027650521 0.00434717437000176 -102.595880293705 
                0.0153485812522376 79.0765122401743 0.00430681080760002 61.5671128448735 0.00441112152654749 -116.653094154867 0.996594767262472 -4.17395909840738 
                0.994003896703347 -4.15706299069612 0.00482510242048765 -78.9156656406777 0.00542627339689615 64.6471656414921 0.0154558415235328 74.8464046814318 
                0.00438471370348822 -94.0503884782895 0.993334329654527 -4.14424831077721 0.0154724862558007 73.791358611258  0.0047107483843621 54.5100391746077 

0.28             0.00629147799267321 106.044558972636 0.015911638936099 84.4021648912589 0.992974856994272 -4.29720520540479 0.00450560303384765 -102.561031405718 
                0.0159086434714612 79.1450625949009 0.0044294452142751 62.490997293562  0.00455350974367672 -116.171713382308 0.996570888679477 -4.32849621375978 
                0.993990111848426 -4.31100664508122 0.00498821719673522 -79.7150422024673 0.00561526427705911 64.8108757750465 0.0160066787040228 75.068943284932  
                0.00454669033233513 -94.3204729610417 0.993314858895131 -4.29770147921799 0.0160198520365977 74.0513363120462 0.00485818287233842 54.8804851178877 

0.29             0.0064994813218376 105.495694983634 0.0164785168318068 84.2753362922526 0.992961901634119 -4.45065824619527 0.00466407807608016 -102.542839987214 
                0.0164688193335893 79.1978500287154 0.00455320081987683 63.3673612275283 0.00469649169126503 -115.732261904282 0.996546147542473 -4.48302745131666 
                0.993975827242066 -4.4649479398857 0.00515176416157918 -80.4777477537131 0.00580491726644243 64.9407466383804 0.0165580131322847 75.2661113992787 
                0.00470864012051531 -94.5864823740903 0.993294683137896 -4.45115055771723 0.0165678593512155 74.2837244415068 0.00500669162137166 55.2061151288414 

