! Touchstone file exported from HFSS 2019.1.0
!        File:           C:/Users/33202/Desktop/HFSS script/parallel line.aedt
!        Generated:      6:54:59 下午  5月 18, 2026
!        Design:         StackupDesign
!        Project:        parallel line
!        Setup:          Setup1
!        Solution:       Sweep
!
! Variables:
!        R_anti_pcb = 400um
!        R_bottom_anti = 450um
!        R_bottom_pad = 150um
!        R_core_anti = 180um
!        R_core_pad = 100um
!        R_core_via = 50um
!        R_micro_anti = 90um
!        R_micro_c_pad = 50um
!        R_micro_pad = 45um
!        R_micro_via = 30um
!        R_pad_pcb = 150um
!        R_via_pcb = 50um
!        diameter_bga = 300um
!        diameter_bga_top = 275um
!        gnd_via_gap = 2
!        layer_bottom_anti = 11
!        layer_core_lower_anti = 9
!        layer_core_upper_anti = 8
!        length_whole = 6000um
!        length_x = 3000um
!        pitch_bga_x = 600um
!        pitch_bga_y = 600um
!        position_L1 = position_L2+thick_L2+thick_dielectric_L1_L2
!        position_L10 = position_L11+thick_L11+thick_dielectric_L10_L11
!        position_L11 = position_L12+thick_L12+thick_dielectric_L11_L12
!        position_L12 = position_L13+thick_L13+thick_dielectric_L12_L13
!        position_L13 = position_L14+thick_L14+thick_dielectric_L13_L14
!        position_L14 = position_L15+thick_L15+thick_dielectric_L14_L15
!        position_L15 = position_L16+thick_L16+thick_dielectric_L15_L16
!        position_L16 = 0um
!        position_L2 = position_L3+thick_L3+thick_dielectric_L2_L3
!        position_L3 = position_L4+thick_L4+thick_dielectric_L3_L4
!        position_L4 = position_L5+thick_L5+thick_dielectric_L4_L5
!        position_L5 = position_L6+thick_L6+thick_dielectric_L5_L6
!        position_L6 = position_L7+thick_L7+thick_dielectric_L6_L7
!        position_L7 = position_L8+thick_L8+thick_dielectric_L7_L8
!        position_L8 = position_L9+thick_L9+thick_dielectric_L8_L9
!        position_L9 = position_L10+thick_L10+thick_dielectric_L9_L10
!        position_pcb_L1 = -thick_bga
!        position_pcb_L2 = position_pcb_L1+thick_pcb_L1+thick_pcb_dielectric_L1_L2
!        position_pcb_L3 = position_pcb_L2+thick_pcb_L2+thick_pcb_dielectric_L2_L3
!        position_pcb_L4 = position_pcb_L3+thick_pcb_L3+thick_pcb_dielectric_L3_L4
!        stack_type = 727
!        thick_L1 = thick_metal
!        thick_L10 = thick_metal
!        thick_L11 = thick_metal
!        thick_L12 = thick_metal
!        thick_L13 = thick_metal
!        thick_L14 = thick_metal
!        thick_L15 = thick_metal
!        thick_L16 = thick_metal
!        thick_L2 = thick_metal
!        thick_L3 = thick_metal
!        thick_L4 = thick_metal
!        thick_L5 = thick_metal
!        thick_L6 = thick_metal
!        thick_L7 = thick_metal
!        thick_L8 = thick_core_metal
!        thick_L9 = thick_core_metal
!        thick_bga = 230um
!        thick_core = 400um
!        thick_core_metal = 22um
!        thick_dielectric = 30um
!        thick_dielectric_L10_L11 = thick_dielectric
!        thick_dielectric_L11_L12 = thick_dielectric
!        thick_dielectric_L12_L13 = thick_dielectric
!        thick_dielectric_L13_L14 = thick_dielectric
!        thick_dielectric_L14_L15 = thick_dielectric
!        thick_dielectric_L15_L16 = thick_dielectric
!        thick_dielectric_L1_L2 = thick_dielectric
!        thick_dielectric_L2_L3 = thick_dielectric
!        thick_dielectric_L3_L4 = thick_dielectric
!        thick_dielectric_L4_L5 = thick_dielectric
!        thick_dielectric_L5_L6 = thick_dielectric
!        thick_dielectric_L6_L7 = thick_dielectric
!        thick_dielectric_L7_L8 = thick_dielectric
!        thick_dielectric_L8_L9 = thick_core
!        thick_dielectric_L9_L10 = thick_dielectric
!        thick_metal = 18um
!        thick_pcb = position_pcb_L4-position_pcb_L1+thick_pcb_L4
!        thick_pcb_L1 = -thick_pcb_metal
!        thick_pcb_L2 = -thick_pcb_metal
!        thick_pcb_L3 = -thick_pcb_metal
!        thick_pcb_L4 = -thick_pcb_metal
!        thick_pcb_dielectric = 85um
!        thick_pcb_dielectric_L1_L2 = -thick_pcb_dielectric
!        thick_pcb_dielectric_L2_L3 = -thick_pcb_dielectric
!        thick_pcb_dielectric_L3_L4 = -thick_pcb_dielectric
!        thick_pcb_metal = 50um
!        thick_pkg = position_L1+thick_L1
!        thick_solder = 22um
!        trace2shape = 69um
!        trace2trace = 69um
!        trace_in = 4
!        trace_in_pcb = 1
!        trace_width = 30um
!        ys_bga = 300um
!
# GHZ S MA R 50.000000
! Terminal data exported
! Port[1] = signal_pkg_L1_trace_custom_1_T1
! Port[2] = signal_pkg_L1_trace_custom_2_T1
! Port[3] = signal_pkg_L1_trace_custom_3_T1
! Port[4] = signal_pkg_L1_trace_custom_4_T1
! Port[5] = signal_pkg_L1_trace_custom_5_T1
! Port[6] = signal_pkg_L1_trace_custom_6_T1
! Port[7] = signal_pkg_L1_trace_custom_7_T1
! Port[8] = signal_pkg_L1_trace_custom_T1
! Port[9] = signal_pkg_L1_trace_custom_1_T2
! Port[10] = signal_pkg_L1_trace_custom_2_T2
! Port[11] = signal_pkg_L1_trace_custom_3_T2
! Port[12] = signal_pkg_L1_trace_custom_4_T2
! Port[13] = signal_pkg_L1_trace_custom_5_T2
! Port[14] = signal_pkg_L1_trace_custom_6_T2
! Port[15] = signal_pkg_L1_trace_custom_7_T2
! Port[16] = signal_pkg_L1_trace_custom_T2
0                0.0020757798     0                0.00014534689    0                0.00010181164    0                6.4266777E-05    0                
                0.00010155478    0                4.9071896E-05    0                1.0650779E-05    0                0.00014454171    0                
                0.99792308       0                0.00014467513    180              0.00010479754    180              6.3469596E-05    180              
                0.00010112912    180              4.9113139E-05    180              1.0477081E-05    180              0.00014750188    180              
                0.00014534689    0                0.0020738289     0                0.00014339597    0                8.82194E-05      0                
                5.8005463E-05    0                1.7892208E-05    0                4.6905832E-06    180              0.00010733007    0                
                0.00014504675    180              0.99792569       0                0.00014547895    180              0.00011296266    180              
                5.8028514E-05    180              1.8270568E-05    180              4.8622291E-06    0                0.00010810487    180              
                0.00010181164    0                0.00014339597    0                0.0020825307     0                0.00016703134    0                
                1.998683E-05     0                5.2217309E-08    0                8.8683666E-06    180              6.2458636E-05    0                
                0.00010436437    180              0.00014657478    180              0.99791637       0                0.00016771109    180              
                2.2246796E-05    180              1.4410925E-07    0                8.7211316E-06    0                6.1729789E-05    180              
                6.4266777E-05    0                8.8219402E-05    0                0.00016703135    0                0.002106635      0                
                1.5028416E-06    180              9.0804711E-06    180              2.3445636E-06    180              2.4824575E-05    0                
                6.2163068E-05    180              0.00011335392    180              0.0001642779     180              0.99787573       0                
                6.6891212E-07    0                7.118527E-06     0                7.3187811E-06    0                2.4356933E-05    180              
                0.00010155478    0                5.8005464E-05    0                1.9986831E-05    0                1.5028439E-06    180              
                0.0020700037     0                0.00014848958    0                8.7219216E-05    0                0.00014074155    0                
                0.00010120249    180              5.783548E-05     180              2.2181572E-05    180              1.0976607E-06    0                
                0.99792582       0                0.00013443739    180              8.7319021E-05    180              0.00014110904    180              
                4.9071895E-05    0                1.7892209E-05    0                5.2227068E-08    0                9.0805372E-06    180              
                0.00014848958    0                0.0020839533     0                0.00014207944    0                9.1532579E-05    0                
                4.968729E-05     180              1.8182499E-05    180              1.1212787E-06    0                9.5260222E-06    0                
                0.00013447923    180              0.99792849       0                0.00014247074    180              9.0446651E-05    180              
                1.0650781E-05    0                4.6905332E-06    180              8.8682943E-06    180              2.3447217E-06    180              
                8.7219216E-05    0                0.00014207944    0                0.0021109098     0                3.8486714E-05    0                
                1.0673055E-05    180              4.9591627E-06    0                8.8012098E-06    0                5.092402E-06     0                
                8.7264266E-05    180              0.00014198688    180              0.99789892       0                3.8477664E-05    180              
                0.00014454171    0                0.00010733007    0                6.2458635E-05    0                2.4824576E-05    0                
                0.00014074156    0                9.1532575E-05    0                3.8486712E-05    0                0.0020801528     0                
                0.00014765742    180              0.00010783051    180              6.201432E-05     180              2.4532999E-05    180              
                0.00014169881    180              8.9927316E-05    180              3.8456947E-05    180              0.99792208       0                
                0.99792308       0                0.00014504675    180              0.00010436437    180              6.2163069E-05    180              
                0.00010120249    180              4.9687291E-05    180              1.0673052E-05    180              0.00014765741    180              
                0.0020816126     0                0.00014428051    0                0.00010722691    0                6.1234728E-05    0                
                0.00010065861    0                4.971181E-05     0                1.0599099E-05    0                0.0001500754     0                
                0.00014467513    180              0.99792569       0                0.00014657478    180              0.00011335393    180              
                5.7835479E-05    180              1.8182499E-05    180              4.9592122E-06    0                0.00010783051    180              
                0.00014428052    0                0.0020785446     0                0.00014805636    0                0.0001374011     0                
                5.7783823E-05    0                1.8730138E-05    0                4.9944181E-06    180              0.00010859509    0                
                0.00010479754    180              0.00014547896    180              0.99791637       0                0.0001642779     180              
                2.218157E-05     180              1.1212955E-06    0                8.8013785E-06    0                6.201432E-05     180              
                0.00010722691    0                0.00014805636    0                0.0020881724     0                0.00016507129    0                
                2.4849026E-05    0                7.2259282E-07    180              9.0772439E-06    180              6.1466618E-05    0                
                6.3469594E-05    180              0.00011296267    180              0.00016771109    180              0.99787573       0                
                1.0976604E-06    0                9.5259649E-06    0                5.0923598E-06    0                2.4532998E-05    180              
                6.1234729E-05    0                0.0001374011     0                0.0001650713     0                0.0021454811     0                
                2.5855147E-07    0                6.7046665E-06    180              9.8530265E-06    180              2.3553958E-05    0                
                0.00010112913    180              5.8028516E-05    180              2.2246795E-05    180              6.6891438E-07    0                
                0.99792582       0                0.00013447924    180              8.7264264E-05    180              0.00014169882    180              
                0.00010065861    0                5.7783824E-05    0                2.4849027E-05    0                2.5855087E-07    0                
                0.0020814278     0                0.00012006681    0                8.6695505E-05    0                0.00014207275    0                
                4.9113138E-05    180              1.8270569E-05    180              1.4410097E-07    0                7.1185126E-06    0                
                0.00013443739    180              0.99792849       0                0.00014198688    180              8.9927314E-05    180              
                4.9711811E-05    0                1.8730138E-05    0                7.2258048E-07    180              6.7046576E-06    180              
                0.00012006681    0                0.002062049      0                0.00014183249    0                8.8635041E-05    0                
                1.0477085E-05    180              4.8621682E-06    0                8.7209719E-06    0                7.3191685E-06    0                
                8.7319023E-05    180              0.00014247073    180              0.99789892       0                3.8456949E-05    180              
                1.0599102E-05    0                4.9943802E-06    180              9.0769498E-06    180              9.8532465E-06    180              
                8.6695505E-05    0                0.00014183248    0                0.0020940405     0                3.8497899E-05    0                
                0.00014750189    180              0.00010810487    180              6.172979E-05     180              2.4356935E-05    180              
                0.00014110903    180              9.0446653E-05    180              3.8477663E-05    180              0.99792208       0                
                0.00015007539    0                0.00010859509    0                6.1466619E-05    0                2.3553959E-05    0                
                0.00014207276    0                8.863504E-05     0                3.8497898E-05    0                0.0020791022     0                

0.050505051      0.0034095433     -46.803636       0.0015724707     82.061292        6.9053168E-05    77.262694        7.196556E-06     80.14901         
                4.1263419E-05    73.942823        2.5645222E-06    72.130536        1.6055506E-07    69.980312        0.001574733      82.109318        
                0.99739304       -0.77568626      0.00034149239    118.01922        6.7576481E-05    -104.40902       7.1331527E-06    -100.50314       
                4.0724124E-05    -107.79569       2.5613862E-06    -106.92534       1.6483235E-07    -105.97569       0.00033993379    117.91455        
                0.0015724699     82.061981        0.003409432      -46.793069       0.0015735627     82.08593         6.9148907E-05    77.516889        
                4.2517595E-06    75.949773        2.8655002E-07    65.306533        9.3095589E-09    67.811681        6.8868046E-05    77.462179        
                0.00034150288    118.00099        0.99739259       -0.77580457      0.00034218485    117.87534        6.7841243E-05    -104.24079       
                4.2589721E-06    -104.20077       2.5800397E-07    -106.31547       1.2582853E-08    -130.64575       6.7551452E-05    -104.19458       
                6.9040996E-05    77.265803        0.0015735605     82.085768        0.0034142518     -46.880745       0.0015859738     82.117145        
                4.4156776E-07    79.68829         2.8572084E-08    66.999976        7.6526766E-10    144.77184        7.1425759E-06    80.072764        
                6.7637223E-05    -104.39751       0.00034217775    117.87575        0.99739314       -0.77621301      0.00034763638    117.45615        
                4.4792056E-07    -101.11167       3.5058118E-08    -100.29825       8.8242892E-09    44.730383        7.0763601E-06    -100.5222        
                7.2080304E-06    80.141961        6.9137491E-05    77.5258          0.0015859737     82.117482        0.003374225      -46.503439       
                4.4587377E-08    88.164173        4.6325712E-08    -122.74788       6.3045079E-09    78.689299        7.4938029E-07    83.274396        
                7.1268687E-06    -99.902031       6.7834285E-05    -104.22607       0.00034781499    117.43677        0.99740682       -0.77271801      
                4.6432342E-08    -90.567569       1.1073509E-08    -85.245824       3.1146675E-09    -84.167824       7.3316226E-07    -98.681896       
                4.126428E-05     73.937143        4.2344429E-06    76.110619        4.3631917E-07    80.479044        4.3471798E-08    77.065987        
                0.0032268316     -44.277666       0.00091225878    80.461692        2.4470477E-05    70.724789        0.0009109727     80.429505        
                4.0732892E-05    -107.77787       4.2784467E-06    -103.7172        4.4269436E-07    -100.80204       4.6761417E-08    -98.91378        
                0.9974278        -0.76551974      0.00019596084    127.30599        2.4682765E-05    -111.21262       0.00019701833    127.31202        
                2.5804815E-06    71.982727        2.822286E-07     64.510077        2.0990598E-08    71.050669        5.3967349E-08    -115.25095       
                0.00091223164    80.463926        0.0032321518     -44.392954       0.00091286229    80.449556        2.4895279E-05    70.011409        
                2.6267486E-06    -107.04843       2.7105862E-07    -102.87514       2.4632281E-08    -129.3612        6.1713809E-09    166.03576        
                0.00019598838    127.28569        0.99742668       -0.76554988      0.00019542098    127.58799        2.4540263E-05    -111.1763        
                1.6487709E-07    66.241965        6.9260005E-09    67.850882        1.3218145E-08    -172.63281       6.6908721E-09    81.204456        
                2.4439716E-05    70.861484        0.00091289173    80.44657         0.0032526705     -44.672866       1.5279693E-06    66.990777        
                1.5169008E-07    -106.51039       2.8827706E-08    -99.486916       1.2669129E-08    -117.72274       4.4335595E-10    48.582926        
                2.4615795E-05    -111.12321       0.00019562562    127.57216        0.9974271        -0.76503871      1.5173001E-06    -110.50244       
                0.0015747223     82.110298        6.8883141E-05    77.461679        7.1555958E-06    80.137791        7.4299148E-07    83.374541        
                0.00091097393    80.428271        2.4886006E-05    69.997252        1.5153906E-06    66.751381        0.0033116825     -45.455987       
                0.00033987895    117.92168        6.7671461E-05    -104.22335       7.1214104E-06    -100.00127       7.4753438E-07    -96.035924       
                0.0001971133     127.33118        2.4581351E-05    -111.15517       1.5660292E-06    -111.08811       0.99740906       -0.77006448      
