! Touchstone file exported from HFSS 2019.1.0
!        File:           C:/Users/33202/Desktop/HFSS script/StackupDemo1_test.aedt
!        Generated:      5:38:57 下午  8月 29, 2025
!        Design:         StackupDesign
!        Project:        StackupDemo1_test
!        Setup:          Setup1
!        Solution:       Sweep1
! Variables:
!        Position_via_L11 = 0um
!        Position_via_L16 = 0um
!        Position_via_L4 = 758um
!        Position_via_L8 = 336um
!        Position_via_L9 = 240um
!        R_L10_pad_out = 45um
!        R_L11_pad_in = 45um
!        R_L11_pad_out = 45um
!        R_L12_pad_out = 45um
!        R_L13_pad_out = 45um
!        R_L14_pad_out = 45um
!        R_L15_pad_out = 45um
!        R_L16_pad_in = 150um
!        R_L16_pad_out = 150um
!        R_L4_pad_in = 45um
!        R_L4_pad_out = 45um
!        R_L5_pad_out = 45um
!        R_L6_pad_out = 45um
!        R_L7_pad_out = 45um
!        R_L8_pad_in = 50um
!        R_L8_pad_out = 100um
!        R_L9_pad_in = 100um
!        R_L9_pad_out = 50um
!        R_anti_L11 = 90um
!        R_anti_L16 = 450um
!        R_anti_L4 = 90um
!        R_anti_L8 = 180um
!        R_anti_L9 = 90um
!        R_anti_pcb = 400um
!        R_bottom_anti = 450um
!        R_bottom_pad = 150um
!        R_core_anti = 180um
!        R_core_pad = 100um
!        R_core_via = 50um
!        R_micro_anti = 90um
!        R_micro_c_anti = 100um
!        R_micro_c_pad = 50um
!        R_micro_c_via = 30um
!        R_micro_pad = 45um
!        R_micro_via = 30um
!        R_pad_pcb = 150um
!        R_via_pcb = 50um
!        Trace_width_L11 = 30um
!        Trace_width_L16 = 30um
!        Trace_width_L4 = 30um
!        Trace_width_L8 = 30um
!        Trace_width_L9 = 30um
!        diameter_bga = 300um
!        diameter_bga_top = 275um
!        gnd_via_gap = 2
!        layer_bottom_anti = 11
!        layer_core_lower_anti = 9
!        layer_core_upper_anti = 8
!        length_whole = 3000um
!        pitch_L10_out = 400um
!        pitch_L11_in = 400um
!        pitch_L11_out = 500um
!        pitch_L12_out = 500um
!        pitch_L13_out = 500um
!        pitch_L14_out = 500um
!        pitch_L15_out = 500um
!        pitch_L16_in = 500um
!        pitch_L16_out = 600um
!        pitch_L4_in = 99um
!        pitch_L4_out = 500um
!        pitch_L5_out = 500um
!        pitch_L6_out = 500um
!        pitch_L7_out = 500um
!        pitch_L8_in = 500um
!        pitch_L8_out = 500um
!        pitch_L9_in = 500um
!        pitch_L9_out = 400um
!        pitch_bga_x = 600um
!        pitch_bga_y = 600um
!        position_L1 = 1098um
!        position_L10 = 288um
!        position_L11 = 240um
!        position_L12 = 192um
!        position_L13 = 144um
!        position_L14 = 96um
!        position_L15 = 48um
!        position_L16 = 0um
!        position_L2 = 1050um
!        position_L3 = 1002um
!        position_L4 = 954um
!        position_L5 = 906um
!        position_L6 = 858um
!        position_L7 = 810um
!        position_L8 = 758um
!        position_L9 = 336um
!        position_pcb_L1 = -230um
!        position_pcb_L2 = -365um
!        position_pcb_L3 = -500um
!        position_pcb_L4 = -635um
!        stack_type = 727
!        thick_L1 = 18um
!        thick_L10 = 18um
!        thick_L11 = 18um
!        thick_L12 = 18um
!        thick_L13 = 18um
!        thick_L14 = 18um
!        thick_L15 = 18um
!        thick_L16 = 18um
!        thick_L2 = 18um
!        thick_L3 = 18um
!        thick_L4 = 18um
!        thick_L5 = 18um
!        thick_L6 = 18um
!        thick_L7 = 18um
!        thick_L8 = 22um
!        thick_L9 = 22um
!        thick_bga = 230um
!        thick_core = 400um
!        thick_core_metal = 22um
!        thick_dielectric = 30um
!        thick_dielectric_L10_L11 = 30um
!        thick_dielectric_L11_L12 = 30um
!        thick_dielectric_L12_L13 = 30um
!        thick_dielectric_L13_L14 = 30um
!        thick_dielectric_L14_L15 = 30um
!        thick_dielectric_L15_L16 = 30um
!        thick_dielectric_L1_L2 = 30um
!        thick_dielectric_L2_L3 = 30um
!        thick_dielectric_L3_L4 = 30um
!        thick_dielectric_L4_L5 = 30um
!        thick_dielectric_L5_L6 = 30um
!        thick_dielectric_L6_L7 = 30um
!        thick_dielectric_L7_L8 = 30um
!        thick_dielectric_L8_L9 = 400um
!        thick_dielectric_L9_L10 = 30um
!        thick_metal = 18um
!        thick_pcb = -455um
!        thick_pcb_L1 = -50um
!        thick_pcb_L2 = -50um
!        thick_pcb_L3 = -50um
!        thick_pcb_L4 = -50um
!        thick_pcb_dielectric = 85um
!        thick_pcb_dielectric_L1_L2 = -85um
!        thick_pcb_dielectric_L2_L3 = -85um
!        thick_pcb_dielectric_L3_L4 = -85um
!        thick_pcb_metal = 50um
!        thick_pkg = 1116um
!        thick_solder = 22um
!        thick_via_L11 = 258um
!        thick_via_L16 = 258um
!        thick_via_L4 = 214um
!        thick_via_L8 = 444um
!        thick_via_L9 = 118um
!        trace2shape = 69um
!        trace2trace = 69um
!        trace_in = 4
!        trace_in_pcb = 1
!        trace_pitch = 99um
!        trace_width = 30um
!        ys_L10_out = -100um
!        ys_L11_in = -100um
!        ys_L11_out = 100um
!        ys_L12_out = 100um
!        ys_L13_out = 100um
!        ys_L14_out = 100um
!        ys_L15_out = 100um
!        ys_L16_in = 100um
!        ys_L16_out = 200um
!        ys_L4_in = 1500um
!        ys_L4_out = 50um
!        ys_L5_out = 50um
!        ys_L6_out = 50um
!        ys_L7_out = 50um
!        ys_L8_in = 50um
!        ys_L8_out = 0um
!        ys_L9_in = 0um
!        ys_L9_out = -100um
!        ys_bga = 200um
!
! Created with skrf (http://scikit-rf.org).
! Data is not renormalized
! S-parameter uses the power definition
# GHz S RI R
! Port[1] = signal_pkg_L4_trace_N_T1
! Port[2] = signal_pkg_L4_trace_P_T1
! Port[3] = signal_BGA_N_0_T1
! Port[4] = signal_BGA_P_0_T1
!freq ReS11 ImS11 ReS12 ImS12 ReS13 ImS13
! ReS14 ImS14
! ReS21 ImS21 ReS22 ImS22 ReS23 ImS23
! ReS24 ImS24
! ReS31 ImS31 ReS32 ImS32 ReS33 ImS33
! ReS34 ImS34
! ReS41 ImS41 ReS42 ImS42 ReS43 ImS43
! ReS44 ImS44
!
0.01 0.0007361494201063575 1.0835515013241091e-05 3.917629010168764e-05 0.00012682795425147947 0.999242031959937 -0.0015136189847169135 -3.786285517759125e-05 -3.97342845389583e-05
 3.917629010885542e-05 0.00012682795425611449 0.0007361382602904728 1.0765819454861697e-05 -3.786284658602292e-05 -3.973428887249517e-05 0.9992420268484393 -0.0015137011304484874
 0.9992420319599661 -0.0015136189846884915 -3.786284659322402e-05 -3.973428887476301e-05 0.0007365097670515295 1.0040476809081156e-05 3.927619782664195e-05 0.0001267707726367101
 -3.7862855172931876e-05 -3.9734284531079005e-05 0.9992420268483923 -0.001513701130545104 3.927619783539165e-05 0.0001267707726384517 0.0007364988228450995 9.970607625976208e-06
! Port Impedance 50.00000000000000 0.00000000000000 50.00000000000000 0.00000000000000 50.00000000000000 0.00000000000000 50.00000000000000 0.00000000000000
0.11018036 0.0007971655318836924 -5.324027527464639e-05 0.00015523678351027394 0.0013550995628366332 0.998810791927438 -0.01612402113766009 -6.313540390230598e-05 -0.00041882042524864183
 0.00015523394117400398 0.0013550973930875896 0.0007972574598526825 -5.384306679608763e-05 -6.316010934848122e-05 -0.00041881330943072136 0.998810853113366 -0.01612531715847301
 0.9988107921836424 -0.01612402094592012 -6.31588575172765e-05 -0.00041881244664059665 0.0008410785460237765 -7.189273272345522e-05 -2.904693904432806e-06 0.0013199719700564706
 -6.313665580792736e-05 -0.00041882128818171443 0.9988108528571634 -0.016125317350218972 -2.9042448392873676e-06 0.0013199721296723885 0.0008405257625509741 -7.230275060776755e-05
! Port Impedance 50.00000000000000 0.00000000000000 50.00000000000000 0.00000000000000 50.00000000000000 0.00000000000000 50.00000000000000 0.00000000000000
0.21036072 0.0008462356100085161 -0.00017723838033134658 0.0003294840064555251 0.0024796770363463595 0.9981604489489171 -0.03049766958952212 -0.00010737139512224882 -0.000780391096918265
 0.0003294835833918543 0.002479675988542598 0.000846793975900063 -0.00017879625242473463 -0.00010745023943190023 -0.0007803287126968425 0.9981603627612354 -0.030500153098285104
 0.9981604489925204 -0.030497669501343756 -0.00010744992948670242 -0.0007803285088878737 0.0009980186161890924 -0.00022539030628721004 1.3708780359062425e-05 0.0025565842787906028
 -0.00010737170506451567 -0.0007803913007917719 0.9981603627176395 -0.030500153186477544 1.370888095702895e-05 0.0025565843360912917 0.000996859829283984 -0.00022539608139778838
! Port Impedance 50.00000000000000 0.00000000000000 50.00000000000000 0.00000000000000 50.00000000000000 0.00000000000000 50.00000000000000 0.00000000000000
0.31054108 0.000865274844889852 -0.0003395059812927318 0.00032432376521151883 0.003696300773604069 0.9973090317750039 -0.04483205588216593 -0.00013963966692785774 -0.0011429042306943446
 0.0003243237842263502 0.0036963002217744747 0.0008653639482952893 -0.00034148099573625687 -0.0001396686391397512 -0.0011428423602373207 0.9973088314073231 -0.0448357164055011
 0.997309031777605 -0.044832055836010916 -0.000139668551939021 -0.001142842272666348 0.0011937638632349404 -0.00040172876127719646 0.0002584117477765844 0.0037768952269596617
 -0.00013963975411599008 -0.0011429043183037756 0.9973088314047246 -0.04483571645165607 0.0002584117750802214 0.003776895256849103 0.0011932851959685728 -0.00040220723616179695
! Port Impedance 50.00000000000000 0.00000000000000 50.00000000000000 0.00000000000000 50.00000000000000 0.00000000000000 50.00000000000000 0.00000000000000
0.41072144 0.0008463031293388869 -0.0005369370997190255 0.00038237656063012026 0.004922806544227351 0.9962376219628012 -0.059060000546495 -0.00018041846371653897 -0.0015016866310543838
 0.0003823766464829816 0.004922806268997329 0.0008460181842523715 -0.000539055538714549 -0.00018040969817691177 -0.0015016556753851798 0.9962372281487063 -0.059064837093203384
 0.9962376219574264 -0.05906000052296171 -0.00018040969115821004 -0.0015016556177366383 0.0014229901923364869 -0.0006301166988329497 0.0004885357448314523 0.00494739254006438
 -0.00018041847072642575 -0.0015016866887231912 0.9962372281540817 -0.059064837116741466 0.0004885357483835782 0.004947392559987999 0.0014230310978379523 -0.0006314762828925192
! Port Impedance 50.00000000000000 0.00000000000000 50.00000000000000 0.00000000000000 50.00000000000000 0.00000000000000 50.00000000000000 0.00000000000000
0.5109018 0.0007800778420538922 -0.0007602823183070504 0.0004980305545649588 0.006127579920945815 0.9949702354919424 -0.07319024816352293 -0.00023126789258820466 -0.0018567372091140787
 0.0004980306067605105 0.0061275797981090695 0.00077961291666935 -0.0007625623240465059 -0.00023124347583646686 -0.0018567356825383056 0.9949695805243944 -0.0731962383937706
 0.9949702354881855 -0.07319024815252018 -0.00023124348876368624 -0.0018567356388223487 0.0016689163615337915 -0.0009056533339144571 0.0007227609710893783 0.00610462260946319
 -0.00023126787965669775 -0.0018567372528391895 0.9949695805281504 -0.07319623840477225 0.0007227609692467808 0.00610462262332834 0.001669192456497379 -0.0009078713251907471
! Port Impedance 50.00000000000000 0.00000000000000 50.00000000000000 0.00000000000000 50.00000000000000 0.00000000000000 50.00000000000000 0.00000000000000
0.61108216 0.0006617148037872077 -0.0009993213068986118 0.0006526475598542604 0.007309870424071731 0.9935207697880992 -0.08724057939759343 -0.0002915520848933833 -0.0022085876906757593
 0.0006526475635562913 0.007309870383224393 0.000661146416336918 -0.0010019145855334611 -0.00029152070071203795 -0.0022086008357141674 0.9935198013045629 -0.08724769644477251
 0.9935207697879659 -0.0872405793937406 -0.0002915207056921953 -0.002208600809499736 0.0019229834296853616 -0.0012177566849036487 0.0009814759934025808 0.007256928973156205
 -0.0002915520799126848 -0.0022085877168940274 0.9935198013046963 -0.08724769644862328 0.0009814759934168814 0.007256928980500116 0.0019233900509668274 -0.0012206295933290161
! Port Impedance 50.00000000000000 0.00000000000000 50.00000000000000 0.00000000000000 50.00000000000000 0.00000000000000 50.00000000000000 0.00000000000000
0.71126253 0.0004900929726029424 -0.0012449914554340002 0.000834913637011626 0.00847605269990365 0.9918931449374814 -0.10122617824127374 -0.00036057117487667213 -0.0025579503998169814
 0.0008349136068897828 0.008476052701952952 0.0004893787331976079 -0.0012480302340256283 -0.0003605289751415563 -0.002557966465133848 0.9918918179705226 -0.10123439780433915
 0.9918931449400756 -0.10122617824156072 -0.00036052896535405547 -0.0025579664609321606 0.002183139827745428 -0.0015574490577643352 0.0012752086613413197 0.00840243695479205
 -0.00036057118466642464 -0.0025579504040192953 0.9918918179679285 -0.1012343978040501 0.0012752086644353916 0.008402436955161076 0.0021837394922145942 -0.001560815909494457
! Port Impedance 50.00000000000000 0.00000000000000 50.00000000000000 0.00000000000000 50.00000000000000 0.00000000000000 50.00000000000000 0.00000000000000
0.81144289 0.0002663076686274524 -0.0014902401966629959 0.0010399518843395247 0.00963267763610696 0.990085826051583 -0.11515696297641302 -0.0004379786679990457 -0.0029055328865163614
 0.0010399518449349296 0.009632677658067298 0.00026537267518919936 -0.0014937673090411215 -0.0004379189478550099 -0.002905549652444329 0.990084096884198 -0.11516626223091152
 0.9900858260548975 -0.11515696297882544 -0.0004379189300698758 -0.002905549667378682 0.0024504746524263697 -0.0019189981233571599 0.0016079226959785358 0.009536918234122263
 -0.0004379786857875937 -0.002905532871580356 0.9900840968808824 -0.11516626222849999 0.0016079227001566498 0.009536918229114838 0.0024513652181992426 -0.0019228318986310034
! Port Impedance 50.00000000000000 0.00000000000000 50.00000000000000 0.00000000000000 50.00000000000000 0.00000000000000 50.00000000000000 0.00000000000000
0.91162325 -7.6210382899387275e-06 -0.0017299428696380156 0.0012668419840898913 0.010784685688213532 0.9880951967693229 -0.1290380126871887 -0.0005237701520904972 -0.0032519063835415663
 0.0012668419625593683 0.010784685713920019 -8.795185548003817e-06 -0.0017339217275807283 -0.0005236924968925979 -0.003251929087065343 0.988093021056986 -0.12904836676209294
 0.9880951967710123 -0.12903801268989748 -0.0005236924853074966 -0.0032519291078642273 0.002726994338260405 -0.0022995067366857747 0.0019799739910545833 0.010656454463904709
 -0.0005237701636774114 -0.0032519063627398075 0.9880930210552976 -0.1290483667593846 0.0019799739930514166 0.010656454457827888 0.002728183960907301 -0.002303889480884002
! Port Impedance 50.00000000000000 0.00000000000000 50.00000000000000 0.00000000000000 50.00000000000000 0.00000000000000 50.00000000000000 0.00000000000000
1.0118036 -0.00032644684487753744 -0.001966936176129415 0.0015169063886319196 0.011934908237542223 0.985920613933268 -0.14287040344280266 -0.000617849543185396 -0.003597209730002471
 0.0015169064048054166 0.011934908253912847 -0.00032776180342610807 -0.001971567076145593 -0.0006177598745622673 -0.0035972246489483477 0.9859179496286591 -0.14288177474327207
 0.985920613931639 -0.14287040344405752 -0.0006177598824990989 -0.003597224655067761 0.003020969981957777 -0.0026963719994239654 0.002390022202062582 0.011758095500131826
 -0.0006178495352467358 -0.0035972097238815546 0.9859179496302889 -0.1428817747420174 0.0023900221994824647 0.01175809549889396 0.0030224041243501064 -0.0027011506629109473
! Port Impedance 50.00000000000000 0.00000000000000 50.00000000000000 0.00000000000000 50.00000000000000 0.00000000000000 50.00000000000000 0.00000000000000
1.111984 -0.0006759500634663678 -0.0022318345305722947 0.0017911715910720989 0.013077357309675358 0.9835801944090659 -0.15665537150306688 -0.0007186544155301877 -0.003939988589340448
 0.0017911716046351183 0.013077357322391474 -0.0006774718066637647 -0.0022384220971107295 -0.0007185210757049813 -0.003939900633367913 0.9835770294687673 -0.15666768429614517
 0.9835801944076719 -0.15665537150401185 -0.0007185210824230031 -0.003939900637691966 0.003361483627321078 -0.0031068462438326163 0.002837383207570464 0.01284266860944424
 -0.0007186544088100619 -0.003939988585015201 0.9835770294701612 -0.15666768429520087 0.002837383205432223 0.01284266860864726 0.003363757030022937 -0.003110838154281508
! Port Impedance 50.00000000000000 0.00000000000000 50.00000000000000 0.00000000000000 50.00000000000000 0.00000000000000 50.00000000000000 0.00000000000000
1.2121643 -0.0010799654442582545 -0.002469040987666645 0.0020875989470286126 0.014209731552856196 0.9810490793306952 -0.1703964116600351 -0.0008288327095671566 -0.004281649065969308
 0.0020875989583515253 0.014209731562861334 -0.0010818910022375164 -0.0024767845004719834 -0.0008286558600495556 -0.004281524260422271 0.9810453926013339 -0.17040966098985638
 0.9810490793295054 -0.17039641166074973 -0.0008286558656470368 -0.004281524263466338 0.0036954835512814665 -0.0035434361241897284 0.003321768461384097 0.013911544361793286
 -0.000828832703967393 -0.004281649062924724 0.9810453926025248 -0.17040966098914193 0.003321768459629789 0.01391154436129551 0.0036985052503841287 -0.0035475505420506557
! Port Impedance 50.00000000000000 0.00000000000000 50.00000000000000 0.00000000000000 50.00000000000000 0.00000000000000 50.00000000000000 0.00000000000000
1.3123447 -0.0015331793265816517 -0.002679176723088258 0.0024058417789894074 0.015332114604764458 0.9783274525151198 -0.18409014314137748 -0.0009483714900238902 -0.00462181587922811
 0.0024058417884013686 0.0153321146127199 -0.00153558661264871 -0.0026876051152607753 -0.000948156301270534 -0.0046216924578902805 0.9783232153619527 -0.18410432156722437
 0.978327452514107 -0.18409014314191882 -0.0009481563058721088 -0.004621692460021882 0.0040294064227606174 -0.004000908809963283 0.0038429101987322587 0.014963035295415188
 -0.0009483714854200764 -0.004621815877096316 0.9783232153629674 -0.18410432156668163 0.0038429101973061356 0.014963035295119241 0.004033033402081458 -0.004005659172684458
! Port Impedance 50.00000000000000 0.00000000000000 50.00000000000000 0.00000000000000 50.00000000000000 0.00000000000000 50.00000000000000 0.00000000000000
1.4125251 -0.002031505650989851 -0.0028627201729585342 0.0027456231171803795 0.016444418570764313 0.9754160145157111 -0.1977335774025645 -0.001077231558975541 -0.004960195186530233
 0.0027456231249626414 0.016444418577142586 -0.002034418848342367 -0.0028715612208018394 -0.0010769842851064589 -0.004960094842853426 0.9754111939168814 -0.1977486737145667
 0.9754160145148506 -0.19773357740297318 -0.001076984288839195 -0.004960094844335889 0.004367821693157802 -0.004477025422818582 0.004400323997527746 0.015995578559966535
 -0.0010772315552405275 -0.004960195185047808 0.9754111939177422 -0.19774867371415986 0.004400323996379475 0.015995578559803773 0.00437191306912791 -0.004482688855568447
! Port Impedance 50.00000000000000 0.00000000000000 50.00000000000000 0.00000000000000 50.00000000000000 0.00000000000000 50.00000000000000 0.00000000000000
1.5127054 -0.0025717493650419627 -0.0030199802434420662 0.0031066939254783825 0.017546434917249342 0.9723157323943398 -0.21132404936149748 -0.0012153664001808419 -0.005296548065518789
 0.0031066939318675456 0.017546434922396863 -0.002575171615215424 -0.00302908109392567 -0.001215092762521273 -0.005296482768247406 0.9723102932492436 -0.21134004831453754
 0.9723157323936146 -0.21132404936180194 -0.0012150927655046615 -0.005296482769271615 0.0047138401250289026 -0.004971240897909009 0.004993385445564618 0.0170077289116929
 -0.0012153663971954166 -0.005296548064494805 0.97231029324997 -0.21134004831423162 0.004993385444650551 0.01700772891161598 0.0047182777314710884 -0.004977955854915909
! Port Impedance 50.00000000000000 0.00000000000000 50.00000000000000 0.00000000000000 50.00000000000000 0.00000000000000 50.00000000000000 0.00000000000000
