! Created with skrf (http://scikit-rf.org).
# GHz S RI R 50.0 
!freq ReS11 ImS11 ReS12 ImS12 ReS13 ImS13
! ReS21 ImS21 ReS22 ImS22 ReS23 ImS23
! ReS31 ImS31 ReS32 ImS32 ReS33 ImS33
!
0.01 -0.33264398734477685 0.00012239981003039913 0.6663083599555688 -0.0010052925235630172 0.6663083558751182 -0.0010052841484761894
 0.6663083599555643 -0.0010052925236279098 -0.33175085640711405 0.0009141167589022947 0.6654148979620557 -0.0017971004232835799
 0.6663083558751658 -0.0010052841484570751 0.6654148979621037 -0.0017971004231958632 -0.3317508527022035 0.000914108788598903
0.11018036 -0.3324869474507588 0.0011576741314396205 0.666047902708674 -0.0107436692776334 0.6660479025922732 -0.010743200989222473
 0.6660479036155003 -0.010743668563241993 -0.3313528395718182 0.009467452507463364 0.6647084807344963 -0.019093623628397165
 0.6660479016854017 -0.010743201703722172 0.6647084788231484 -0.019093624793006983 -0.33135226443049715 0.009466809508814136
0.21036072 -0.3322891628404739 0.002047523022041576 0.6656450349033215 -0.02035045464218181 0.6656453830728907 -0.020349802559497688
 0.6656450349676019 -0.020350454147266155 -0.33072066737569683 0.01782263485259051 0.6635875878761414 -0.03605610256052743
 0.6656453830086192 -0.020349803054467958 0.6635875874668337 -0.03605610297200887 -0.33071955458623326 0.01782054906005319
0.31054108 -0.33227879392744486 0.0029853029891434776 0.6650766604887629 -0.02991966462353575 0.6650767805251778 -0.029918497235542435
 0.6650766604305165 -0.029919664345358452 -0.3297485315838777 0.02604938564162955 0.6621096160823723 -0.05287942796530584
 0.6650767805834357 -0.02991849751374992 0.6621096159917281 -0.0528794281731968 -0.3297483374582108 0.026046864282807586
0.41072144 -0.33224655657829544 0.003900794826803465 0.6643676908352951 -0.039422085815863664 0.6643676936486803 -0.03942023695371124
 0.6643676907865329 -0.03942208568424076 -0.32857297824098547 0.03412182635866437 0.6601651288353858 -0.06955526106731197
 0.6643676936974499 -0.03942023708535328 0.6601651288380137 -0.0695552611876196 -0.3285735956780585 0.03411933914611514
0.5109018 -0.33220550247003305 0.004773968697379408 0.6635291263834132 -0.04886851931627921 0.6635291683231378 -0.04886601656529809
 0.6635291263650891 -0.048868519269021055 -0.327232554868344 0.042071352186768274 0.6578102589166837 -0.08607626698124485
 0.6635291683414639 -0.04886601661256024 0.6578102589328884 -0.08607626705246135 -0.32723372985522226 0.04206889310648856
0.61108216 -0.33217656200496637 0.00561311588443323 0.6625651858658084 -0.05826877059351597 0.6625653365573033 -0.05826572313129818
 0.6625651858688401 -0.05826877058628228 -0.3257388417309835 0.04992605542073769 0.6550776924604782 -0.10245748885540623
 0.662565336554272 -0.058265723138532295 0.6550776924617382 -0.1024574888888195 -0.32574051649880637 0.04992341640752661
0.71126253 -0.3321708537376068 0.006431900829772363 0.6614762099092085 -0.06762971894105382 0.6614764609444811 -0.06762621800245655
 0.6614762099207996 -0.06762971894678298 -0.32409102204130846 0.05770588109881179 0.6519787820900652 -0.11871546724182776
 0.6614764609328881 -0.06762621799672694 0.6519787820739744 -0.1187154672425747 -0.3240933252716934 0.05770290319637434
0.81144289 -0.33219178510804415 0.0072424045865773015 0.6602607174174724 -0.0769552349681034 0.6602610427501729 -0.07695131451067622
 0.6602607174280104 -0.07695523497370131 -0.32228359234735465 0.06542238258659455 0.648513761018404 -0.13486056918511183
 0.660261042739632 -0.07695131450507572 0.6485137609962477 -0.13486056916281752 -0.3222866909319189 0.06541906079901832
0.91162325 -0.33223839064049193 0.008053574827324172 0.6589167410088166 -0.0862467592145331 0.6589171532137138 -0.08624240921940332
 0.6589167410122602 -0.08624675921746945 -0.32031053177979446 0.07308070809915365 0.6446786339176442 -0.15089622177732986
 0.6589171532102701 -0.08624240921646639 0.6446786339063844 -0.15089622175051692 -0.32031448798155937 0.07307716318216947
1.0118036 -0.3323047730514339 0.008865294178323591 0.6574453617961757 -0.09550510221227804 0.6574459264404855 -0.09550047409474617
 0.6574453617905195 -0.09550510221683157 -0.3181615014269471 0.08068027293936049 0.6404723872373351 -0.16681761024301697
 0.6574459264461436 -0.09550047409019159 0.6404723872498937 -0.16681761023592578 -0.3181662993784903 0.08067634041506047
1.111984 -0.3323772026649932 0.009644575249006054 0.6558618973081752 -0.10473825444360829 0.655862472774447 -0.10473418651541994
 0.6558618973034855 -0.10473825444724914 -0.31581340608794284 0.08821221806146343 0.6359165494682866 -0.18261226731225844
 0.6558624727791378 -0.10473418651177802 0.6359165494787539 -0.18261226730744057 -0.31581975388337286 0.08820649245769296
1.2121643 -0.33247907069971616 0.010439573007532219 0.6541439849350473 -0.11393746349808695 0.6541445024579143 -0.11393344918907572
 0.6541439849311289 -0.11393746350105097 -0.31331025662314355 0.09569431472952902 0.630983702243703 -0.19830035610276106
 0.6541445024618345 -0.11393344918611212 0.6309837022523399 -0.19830035609951424 -0.31331811039324886 0.09568791771756105
1.3123447 -0.33260592317493337 0.011249644741611074 0.652292979449563 -0.1231003192824435 0.6522934350930509 -0.12309606174887214
 0.6522929794462695 -0.12310031928488638 -0.31064175666623206 0.10312821057086193 0.6256732410165966 -0.21387198095108756
 0.6522934350963466 -0.12309606174642848 0.6256732410236602 -0.21387198094892357 -0.31065100707033577 0.10312179210202523
1.4125251 -0.33275436428338895 0.01207417997492543 0.6503103466553731 -0.1322247763441657 0.6503107629263913 -0.13222010622221542
 0.6503103466525949 -0.13222477634620006 -0.3078004519696321 0.11051264648108797 0.6199857368777317 -0.2293178532246471
 0.650310762929171 -0.13222010622018227 0.6199857368834565 -0.22931785322321863 -0.30781098830284787 0.11050657682924109
1.5127054 -0.3329217802931993 0.012912646650441006 0.648197545218853 -0.14130905821691986 0.6481979523200619 -0.1413038832923132
 0.6481975452165072 -0.14130905821862158 -0.3047809860212866 0.1178447929608911 0.6139224872429851 -0.24462917995219194
 0.64819795232241 -0.14130388329060922 0.613922487247578 -0.24462917995125769 -0.30479272053711076 0.11783927973543365
1.6128858 -0.33310614053903737 0.01376460570280532 0.64595596790245 -0.15035157795328633 0.6459563950336206 -0.15034585221216962
 0.6459559679004723 -0.15035157795471762 -0.3015795222275472 0.12512097941527509 0.6074852385217742 -0.25979754290944784
 0.6459563950355995 -0.15034585221073737 0.6074852385254121 -0.2597975429088336 -0.30159239599654525 0.12511613861142148
1.7130661 -0.3333058527040986 0.014629712378007219 0.6435869170450406 -0.1593508750181275 0.6435873888254494 -0.15934457952337708
 0.643586917043381 -0.15935087501933456 -0.29819331679908023 0.13233709118864295 0.6006760175584882 -0.2748147890084427
 0.6435873888271101 -0.15934457952217002 0.600676017561324 -0.2748147890080244 -0.2982072975225434 0.13233299005473567
1.8132465 -0.33351965626095903 0.01550771214149399 0.6410915997139432 -0.16830556674942715 0.641092135162103 -0.16829869778978063
 0.6410915997125635 -0.16830556675044672 -0.29462041016252516 0.13948878221326622 0.5934970323594307 -0.2896729384885243
 0.6410921351634861 -0.16829869778876191 0.5934970323615938 -0.28967293848821424 -0.2946354870095588 0.13948546478765042
1.9134269 -0.3337465429484359 0.016398434502157583 0.6384711338410024 -0.17721431211691732 0.6384717465719104 -0.17720687386642753
 0.6384711338398682 -0.17721431211778033 -0.29085940682627553 0.14657158444298823 0.5859506170237484 -0.30436411149307546
 0.6384717465730455 -0.17720687386556444 0.5859506170253486 -0.30436411149280795 -0.29087558469363933 0.1465690864207413
2.0136072 -0.33398569665244204 0.0173017861547113 0.6357265600591786 -0.18607578554880444 0.6357272590033446 -0.18606778554345427
 0.6357265600582647 -0.18607578554953697 -0.28690931982614803 0.15358095946113837 0.5780392047148186 -0.3188804712905671
 0.6357272590042604 -0.18606778554272335 0.5780392047159504 -0.31888047129029923 -0.28692661407874787 0.15357931650886042
2.1137876 -0.33423644742322633 0.01821774403058212 0.6328588560027594 -0.1948886588133517 0.6328596462936492 -0.19488010519623838
 0.6328588560020438 -0.19488865881397466 -0.28276946188602403 0.16051231802303667 0.5697653181579583 -0.33321418163356303
 0.6328596462943662 -0.19488010519561527 0.5697653181587002 -0.333214181633262 -0.28278789396640486 0.16051157010467987
2.2139679 -0.334498235950396 0.019146348508862238 0.6298689511068198 -0.20365158921168408 0.6298698349657144 -0.2036424890912598
 0.6298689511062814 -0.20365158921221801 -0.27843937024662907 0.16736102229138144 0.5611315708063225 -0.3473573756692665
 0.6298698349662536 -0.20364248909072807 0.5611315708067459 -0.347357375668914 -0.27845896421738103 0.1673612156058316
2.3141483 -0.3347705858881718 0.02008769689874767 0.6267577407519791 -0.2123632126125424 0.6267587182955676 -0.2123535711211222
 0.6267577407516012 -0.2123632126130031 -0.2739187557310072 0.17412237923961713 0.5521406742227519 -0.36130213402809525
 0.6267587182959472 -0.21235357112066178 0.5521406742229166 -0.36130213402767564 -0.2739395356680513 0.17412356676910395
2.4143287 -0.3350530821524142 0.021041937245943075 0.623526099122276 -0.22102214011780824 0.6235271690679843 -0.22101195990912254
 0.623526099122043 -0.22102214011821103 -0.2692074692583416 0.18079163005895016 0.5427954488250034 -0.3750404700403472
 0.6235271690682183 -0.22101195990872 0.5427954488249587 -0.3750404700398543 -0.2692294573585385 0.1807938713479194
2.514509 -0.3353453538141142 0.022009262488519393 0.6201748904793384 -0.22962695737984448 0.620176050747765 -0.22961623840006284
 0.6201748904792359 -0.22962695738020295 -0.264305480930631 0.1873639382788343 0.533098836209769 -0.38856432037834326
 0.6201760507478681 -0.22961623839970546 0.5330988362095593 -0.3885643203777741 -0.2643286961881106 0.18736729882257008
2.6146894 -0.33564706056703275 0.022989904973172652 0.6167049787678112 -0.23817622579401582 0.6167062269924857 -0.23816496522141137
 0.6167049787678262 -0.2381762257943409 -0.25921286819621164 0.1938343780677337 0.5230539119816342 -0.40186553975121375
 0.6167062269924719 -0.23816496522108596 0.5230539119812979 -0.40186553975056805 -0.2592373255138263 0.19383892853749551
2.7148697 -0.3359578819990831 0.02398413133323516 0.6131172355962029 -0.2466684849613193 0.6131185695545441 -0.24665667724860188
 0.6131172355963223 -0.24666848496162153 -0.253929810587709 0.20019792345936854 0.5126638984816954 -0.4149358985730687
 0.6131185695544253 -0.2466566772483001 0.5126638984812641 -0.4149358985723511 -0.25395552021024176 0.20020373889457554
2.8150501 -0.33627750908003007 0.024992237722677786 0.6094125467110977 -0.25510225595852176 0.6094139646905655 -0.2550898929367007
 0.6094125467113092 -0.25510225595881086 -0.2484565892469715 0.20644943883894254 0.501932177113877 -0.42776708277670566
 0.609413964690355 -0.2550898929364118 0.5019321771133809 -0.4277670827759195 -0.24848355642453585 0.206456597876669
2.9152305 -0.3366056374130538 0.0260145453948794 0.6055918171199246 -0.2634760450688042 0.6055933182318507 -0.2634631160873498
 0.6055918171202167 -0.26347604506908645 -0.24279358996318381 0.21258367079800558 0.4908623001580541 -0.4403506951536578
 0.6055933182315589 -0.26346311608706874 0.49086230015751453 -0.4403506951528129 -0.24282181477364045 0.2125922549731153
3.0154108 -0.33694196189882014 0.027051396611024014 0.6016559750309569 -0.2717883477183332 0.6016575594824253 -0.27177483980653283
 0.6016559750313185 -0.27178834771861676 -0.23694130881840225 0.21859524135074773 0.4794580020738766 -0.4526782577711814
 0.6016575594820653 -0.27177483980624956 0.47945800207331674 -0.45267825777028153 -0.23697078609508485 0.21860533447786706
3.1155912 -0.3372861725372709 0.028103150860419368 0.5976059747779969 -0.2800376524365781 0.5976076441099984 -0.2800235504772812
 0.5976059747784155 -0.28003765243686696 -0.23090035979731333 0.22447864245235816 0.46772321036338316 -0.4647412151518112
 0.5976076441095798 -0.280023550476993 0.46772321036281894 -0.4647412151508687 -0.23093107912285438 0.22449033008833388
3.2157715 -0.3376379511510187 0.029170181373656075 0.5934427988872445 -0.2882224447140535 0.5934445561853327 -0.28820773162503555
 0.5934427988877099 -0.28822244471435315 -0.22467148390446176 0.2302282317441662 0.4556620560909907 -0.4765309380071028
 0.5934445561848669 -0.2882077316247358 0.45566205609043814 -0.476530938006123 -0.22470342964286677 0.2302416007230434
3.3159519 -0.33799696885943786 0.030252871909225973 0.5891674594293578 -0.2963412106736032 0.589169309511389 -0.29632586759403895
 0.58916745942986 -0.2963412106739155 -0.21825555946335123 0.2358382294536784 0.4432788841687435 -0.48803872739851367
 0.5891693095108862 -0.2963258675937276 0.44327888416821265 -0.48803872739751064 -0.21828871081139106 0.23585336748333707
3.4161323 -0.3383628841677022 0.03135161379460197 0.5847809987832697 -0.3043924405029954 0.5847829483674172 -0.30437644698395344
 0.5847809987837982 -0.30439244050332287 -0.2116536133634047 0.24130271639037332 0.43057826351050144 -0.4992558192602621
 0.5847829483668883 -0.3043764469836274 0.43057826351000356 -0.4992558192592451 -0.21168794440900834 0.24131971169928476
3.5163126 -0.33873534156236673 0.03246680320386086 0.5802844899216936 -0.3123746316197918 0.5802865477768736 -0.31235796581834085
 0.5802844899222389 -0.31237463162013474 -0.20486683308362003 0.24661563299449563 0.41756499714691747 -0.5101733892647007
 0.5802865477763279 -0.31235796581799785 0.41756499714646017 -0.5101733892636784 -0.20490231286389876 0.24663457401758115
3.616493 -0.339113970526543 0.033598838655268706 0.5756790363124029 -0.3202862915561042 0.5756812133924434 -0.32026893043293636
 0.5756790363129564 -0.32028629155646404 -0.19789657936426347 0.2517707794125898 0.4042441323770201 -0.5207825580441285
 0.57568121339189 -0.3202689304325764 0.40424413237660894 -0.52078255804311 -0.1979331719193071 0.25179175450640495
3.7166733 -0.33949838490444256 0.03474811871383969 0.5709657715148857 -0.3281259405625331 0.570968081077163 -0.3281078600830759
 0.5709657715154375 -0.32812594056290795 -0.19074439942574534 0.2567618165886858 0.39062097101440907 -0.5310743968064278
 0.5709680810766105 -0.3281078600827018 0.3906209710140477 -0.531074396805426 -0.19078206384678786 0.2567849137676099
3.8168537 -0.3398881825582514 0.035915039885557984 0.5661458585390331 -0.33589211393845414 0.5661483162479167 -0.33587328927738075
 0.5661458585395758 -0.3358921139388422 -0.18341204065133326 0.2615822683728564 0.37670107976793177 -0.5410399333978145
 0.5661483162473737 -0.335873289276993 0.3767010797676229 -0.5410399333968365 -0.18345073112354604 0.26160757505953613
3.9170341 -0.340282945270582 0.03709999469154225 0.5612204890213082 -0.3435833641009959 0.5612231130364596 -0.3435637698498729
 0.5612204890218351 -0.34358336410139423 -0.17590146466052592 0.26622552465928306 0.3624903007791567 -0.5506701588760414
 0.561223113035932 -0.34356376984947457 0.3624903007788988 -0.5506701588750966 -0.17594113050172636 0.2662531274439734
4.0172144 -0.3406822388538634 0.0383033699119963 0.5561908822641366 -0.35119826240807317 0.5561936933135906 -0.3511778727857342
 0.5561908822646406 -0.3511982624084786 -0.16821486170509636 0.27068484557370454 0.34799476232250426 -0.5599560346629902
 0.5561936933130865 -0.3511778727853273 0.347994762322299 -0.5599560346620865 -0.16825544740225923 0.2707148299785338
4.1173948 -0.34108561343433014 0.03952554499113646 0.5510582841760903 -0.3587354007525353 0.5510613056139632 -0.35871418981758674
 0.551058284176566 -0.3587354007529435 -0.16035466532135706 0.27495336673573095 0.3332208896586709 -0.568888500347753
 0.5510613056134884 -0.3587141898171775 0.3332208896585154 -0.5688885003469 -0.1603961105671124 0.2749858169809814
4.2175752 -0.3414926038832995 0.040766890595498984 0.545823966143504 -0.366193392945099 0.5458272239921895 -0.36617133480980424
 0.5458239661439456 -0.3661933929455057 -0.15232356717154275 0.2790241056249039 0.318175416018178 -0.5774584822109765
 0.5458272239917482 -0.36617133480939734 0.31817541601806804 -0.5774584822101809 -0.15236580690289345 0.2790591043954194
4.3177555 -0.34190273037225355 0.04202776731905246 0.5404892238584618 -0.3735708759036265 0.5404927468352372 -0.3735479449482936
 0.5404892238588657 -0.37357087590402616 -0.14412453200491254 0.2828899690810168 0.3028653936795101 -0.5856569025388166
 0.5404927468348334 -0.3735479449478937 0.30286539367944204 -0.5856569025380846 -0.14416749644630625 0.2829275972915894
4.4179359 -0.3423154990313733 0.04330852452934503 0.5350553761232882 -0.3808665106658481 0.5350591956513355 -0.38084268175271546
 0.5350553761236517 -0.3808665106662365 -0.13576081266592432 0.28654376196925985 0.2872982050951365 -0.5934746897911347
 0.5350591956509723 -0.3808426817523273 0.2872982050951057 -0.5934746897904695 -0.13580442737866977 0.2865840985285033
4.5181162 -0.3427304026935444 0.04460949934955988 0.5295237636477645 -0.38807898324176504 0.529527913851738 -0.3880542319273501
 0.5295237636480847 -0.3880789832421355 -0.12723596507312088 0.2899781970394619 0.27148157400885836 -0.6009027896835454
 0.5295279138514183 -0.3880542319269782 0.27148157400886014 -0.6009027896829523 -0.1272801510128508 0.290021318612153
4.6182966 -0.3431469217077911 0.04593101577182884 0.5238957478520527 -0.39520700532104003 0.5239002655384495 -0.3951813080658558
 0.5238957478523281 -0.3952070053213881 -0.11855386308829793 0.29318590600620487 0.25542357649914 -0.6079321772371816
 0.523900265538174 -0.3951813080655077 0.25542357649916764 -0.6079321772366647 -0.1185985366719321 0.29323188677447726
4.718477 -0.3435645248076329 0.04727338389743878 0.518172709685674 -0.40224931484964177 0.5181776343083955 -0.4022226492241858
 0.5181727096859048 -0.40224931484996085 -0.10971871319151462 0.2961594518731921 0.2391326518753977 -0.6145538698434998
 0.5181776343081644 -0.4022226492238661 0.23913265187544389 -0.6145538698430605 -0.1097637863749173 0.2962083632971942
4.8186573 -0.3439826700211067 0.04863689929976736 0.5123560484707057 -0.4092046764889444 0.5123614220823378 -0.40917702137490225
 0.5123560484708929 -0.40920467648923076 -0.10073506887357718 0.29889134252090976 0.22261761334741553 -0.6207589413845114
 0.5123614220821521 -0.40917702137461553 0.22261761334747573 -0.6207589413841496 -0.10078044924079838 0.2989432530997558
4.9188377 -0.3444008056102376 0.050021842505802785 0.506447180775583 -0.4160718819695154 0.5064530479650445 -0.4160432177551569
 0.5064471807757264 -0.41607188196976375 -0.09160784465392198 0.3013740455716121 0.20588765838215237 -0.6265385374413577
 0.5064530479649015 -0.41604321775490893 0.20588765838222003 -0.6265385374410748 -0.09165343551868417 0.3014290206055728
5.019018 -0.34481837102864266 0.051428478592084825 0.5004475393244543 -0.42284975035077577 0.5004539471417812 -0.4228200591196301
 0.5004475393245577 -0.4228497503509809 -0.08234232962848442 0.30360000454002783 0.18895237865716494 -0.6318838916164088
 0.5004539471416779 -0.42282005911942533 0.18895237865723088 -0.6318838916162022 -0.08238803014833028 0.30365810589494585
5.1191984 -0.3452347978866964 0.05285705689074269 0.4943585719458353 -0.4295371281968964 0.4943655698149749 -0.42950639390884027
 0.4943585719459019 -0.42953712819705336 -0.0729442004491132 0.30556165627196996 0.1718217695155085 -0.6367863429859857
 0.4943655698149094 -0.4295063939086819 0.17182176951556669 -0.636786342985854 -0.07298990575244038 0.30562294214691577
5.2193788 -0.3456495109144412 0.05430781080114115 0.4881817405633295 -0.43613288967837155 0.4881893801838736 -0.4361010983424373
 0.4881817405633613 -0.4361328896784788 -0.06341953363354584 0.30725144966637297 0.15450623882340242 -0.6412373546925639
 0.4881893801838418 -0.4361010983423299 0.15450623882344905 -0.6412373546925044 -0.06346513495955418 0.3073159743655572
5.3195591 -0.3460619289130264 0.05578095770239175 0.48191852023035264 -0.44263593660801437 0.4819268554692607 -0.4426030764462912
