! Created with skrf (http://scikit-rf.org).
# GHz S RI R 50.0 
!freq ReS11 ImS11
0.01 0.9999544642750516 -0.003006295217771037
0.11018036 0.9989981670634509 -0.03235902480383185
0.21036072 0.9972253020968393 -0.061326888704046456
0.31054108 0.9946431135802704 -0.09020814527333179
0.41072144 0.9912120541115237 -0.11886600883664186
0.5109018 0.9869647682532914 -0.14727839936654508
0.61108216 0.9819260740677246 -0.1754358205276309
0.71126253 0.9761115923086187 -0.20332675302151462
0.81144289 0.9695324149348168 -0.2309346924048653
0.91162325 0.9621986487344928 -0.25823865985095923
1.0118036 0.9541361234087108 -0.2852205961200477
1.111984 0.9454312968019364 -0.31190072219359366
1.2121643 0.9359832412698762 -0.3382070290401722
1.3123447 0.9258231128338732 -0.3641102397725557
1.4125251 0.9149804786881052 -0.3895860710777672
1.5127054 0.9034835455237038 -0.4146136921759359
1.6128858 0.8913594290236431 -0.439174785667111
1.7130661 0.8786344022558505 -0.4632529637299492
1.8132465 0.8653341047668895 -0.4868334015932283
1.9134269 0.8514837098409076 -0.5099026077530726
2.0136072 0.8371080527599108 -0.5324482819251527
2.1137876 0.8222317245577648 -0.5544592296733875
2.2139679 0.806879136081197 -0.5759253133489572
2.3141483 0.7910745570105991 -0.5968374256425635
2.4143287 0.7748421341551841 -0.6171874763974993
2.514509 0.7582058929326552 -0.6369683862677484
2.6146894 0.7411897255177272 -0.65617408284784
2.7148697 0.7238173687197558 -0.6747994963489562
2.8150501 0.706112374240636 -0.6928405529339448
2.9152305 0.6880980735803797 -0.710294164570215
3.0154108 0.6697975395042004 -0.7271582147952993
3.1155912 0.6512335456661144 -0.7434315401702873
3.2157715 0.632428525699798 -0.7591139074626938
3.3159519 0.6134045328381359 -0.7742059867817485
3.4161323 0.5941832009059226 -0.7887093210080431
3.5163126 0.5747857073435949 -0.8026262919322866
3.616493 0.5552327387605933 -0.8159600835569455
3.7166733 0.5355444593818726 -0.828714643029377
3.8168537 0.5157404826376102 -0.8408946396722885
3.9170341 0.49583984605126064 -0.8525054225625083
4.0172144 0.47586098950262584 -0.8635529770857729
4.1173948 0.4558217368778835 -0.8740438808667675
4.2175752 0.4357392810660402 -0.883985259441618
4.3177555 0.4156301722190036 -0.8933847420066808
4.4179359 0.39551030915906393 -0.9022504175432372
4.5181162 0.37539493379158156 -0.9105907915841134
4.6182966 0.35529862836119924 -0.918414743855356
4.718477 0.3352353153758194 -0.9257314869946272
4.8186573 0.31521826001299375 -0.93255052651823
4.9188377 0.2952600748177845 -0.9388816221806124
5.019018 0.27537272649874195 -0.9447347508441692
5.1191984 0.25556754462894743 -0.9501200709530817
5.2193788 0.2358552320615624 -0.9550478886829029
5.3195591 0.21624587687375613 -0.9595286258174613
5.4197395 0.1967489656586633 -0.9635727893864963
5.5199198 0.1773733979920426 -0.9671909430812049
5.6201002 0.158127501908219 -0.9703936804502815
5.7202806 0.13901905022845062 -0.9731915998662609
5.8204609 0.12005527759391371 -0.9755952812407449
5.9206413 0.10124289806485343 -0.9776152644573595
6.0208216 0.08258812315695041 -0.9792620294829706
6.121002 0.06409668019545611 -0.9805459781106551
6.2211824 0.045773830877176624 -0.9814774172820584
6.3213627 0.027624389939613803 -0.9820665439320608
6.4215431 0.009652743845666834 -0.9823234312949014
6.5217234 -0.008137130598892872 -0.9822580166080392
6.6219038 -0.02574164776962734 -0.9818800901480519
6.7220842 -0.04315759495558241 -0.9811992855314889
6.8222645 -0.06038211435811719 -0.980225071213016
6.9224449 -0.07741268540781676 -0.9789667431130193
7.0226253 -0.09424710744417503 -0.9774334183073063
7.1228056 -0.1108834827962818 -0.9756340297123627
7.222986 -0.12732020029692215 -0.973577321700822
7.3231663 -0.14355591925692246 -0.9712718465833605
7.4233467 -0.15958955392159413 -0.9687259618950227
7.5235271 -0.17542025842642395 -0.9659478284259778
7.6237074 -0.191047412264931 -0.9629454089388941
7.7238878 -0.20647060627781838 -0.959726467517444
7.8240681 -0.221689629168966 -0.9562985694928676
7.9242485 -0.23670445455076233 -0.9526690818980006
8.0244289 -0.25151522851846414 -0.9488451744006896
8.1246092 -0.26612225775076737 -0.9448338206710851
8.2247896 -0.28052599813157897 -0.9406418001398147
8.3249699 -0.2947270438861789 -0.9362757001065458
8.4251503 -0.3087261172231297 -0.9317419181609496
8.5253307 -0.32252405847203347 -0.927046664880468
8.625511 -0.3361218167059531 -0.9221959667716526
8.7256914 -0.3495204408363592 -0.9171956694241313
8.8258717 -0.3627210711676054 -0.9120514408484446
8.9260521 -0.3757249313973417 -0.9067687749711446
9.0262325 -0.38853332104871163 -0.9013529952625297
9.1264128 -0.4011476083199126 -0.8958092584743437
9.2265932 -0.41356922333632706 -0.8901425584666266
9.3267735 -0.4257996517904302 -0.8843577301046011
9.4269539 -0.4378404289545632 -0.878459453208154
9.5271343 -0.4496931340517284 -0.8724522565380133
9.6273146 -0.46135938496968815 -0.8663405218041866
9.727495 -0.4728408333038506 -0.8601284876835613
9.8276754 -0.4841391597146304 -0.8538202538348821
9.9278557 -0.4952560695852882 -0.8474197849004725
10.028036 -0.5062021968218102 -0.8409284920342729
10.128216 -0.5169924633104966 -0.8343468059052283
10.228397 -0.5276053749042838 -0.8276849557539419
10.328577 -0.538042890783403 -0.8209465418209904
10.428758 -0.5483069839777691 -0.8141350366028575
10.528938 -0.5583996379439238 -0.8072537885074165
10.629118 -0.5683228433681093 -0.8003060254703109
10.729299 -0.5780785951844702 -0.7932948585269252
10.829479 -0.5876688897981364 -0.7862232853351231
10.929659 -0.5970957225032432 -0.7790941936443991
11.02984 -0.6063610850859111 -0.7719103647079724
11.13002 -0.6154669636031541 -0.7646744766343745
11.2302 -0.6244153363283418 -0.7573891076760602
11.330381 -0.6332081718548375 -0.7500567394524623
11.430561 -0.6418474273491976 -0.7426797601057811
11.530741 -0.6503350469459892 -0.7352604673878362
11.630922 -0.6586729602766166 -0.7278010716766505
11.731102 -0.6668630811245071 -0.7203036989220296
11.831283 -0.6749073061998642 -0.7127703935191743
11.931463 -0.6828075140269085 -0.7052031211101524
12.031643 -0.6905655639373794 -0.6976037713127732
12.131824 -0.6981832951638871 -0.6899741603770247
12.232004 -0.7056625260272471 -0.682316033769177
12.332184 -0.7130050532122393 -0.6746310686837957
12.432365 -0.7202126511261662 -0.6669208764843255
12.532545 -0.727287071335317 -0.6591870050726354
12.632725 -0.7342300420741716 -0.6514309411884751
12.732906 -0.7410432678229117 -0.6436541126394462
12.833086 -0.7477284289485681 -0.6358578904626256
12.933267 -0.7542871814056998 -0.6280435910187312
13.033447 -0.7607211564925993 -0.6202124780198504
13.133627 -0.7670319606590221 -0.6123657644921046
13.233808 -0.7732211753620374 -0.6045046146741546
13.333988 -0.7792903569663479 -0.59663014585304
13.434168 -0.7852410366859397 -0.5887434301384593
13.534349 -0.791074720563864 -0.5808454961769347
13.634529 -0.7967928894872363 -0.5729373308071612
13.734709 -0.802396999234725 -0.565019880657825
13.83489 -0.8078884805537595 -0.5570940536894602
13.93507 -0.8132687392651156 -0.5491607206815106
14.035251 -0.8185391563923176 -0.5412207166662852
14.135431 -0.8237010883139031 -0.5332748423108505
14.235611 -0.8287558669361464 -0.5253238652486427
14.335792 -0.8337047998844479 -0.5173685213619925
14.435972 -0.8385491707115073 -0.5094095160169225
14.536152 -0.843290239120364 -0.5014475252518917
14.636333 -0.847929241200889 -0.4934831969214601
14.736513 -0.8524673896779278 -0.48551715179667976
14.836693 -0.8569058741698085 -0.47754998462321563
14.936874 -0.8612458614557468 -0.46958226513877543
15.037054 -0.8654884957508948 -0.46161453905107824
15.137234 -0.869634898987841 -0.4536473289776503
15.237415 -0.8736861711034019 -0.44568113534883563
15.337595 -0.877643390329721 -0.43771643727514353
15.437776 -0.8815076134886146 -0.42975369338035435
15.537956 -0.8852798762883545 -0.4217933426014149
15.638136 -0.88896119362195 -0.4138358049565011
15.738317 -0.8925525598662076 -0.405881482282332
15.838497 -0.8960549491808666 -0.39793075894181673
15.938677 -0.8994693158070596 -0.3899840025033656
16.038858 -0.9027965943646062 -0.3820415643926766
16.139038 -0.9060377001474388 -0.374103780518403
16.239218 -0.9091935294167982 -0.36617097187240594
16.339399 -0.9122649596916209 -0.3582434451058451
16.439579 -0.9152528500356985 -0.35032149308210336
16.53976 -0.9181580413413418 -0.34240539540722104
16.63994 -0.920981356609018 -0.3344954189392487
16.74012 -0.9237236012228356 -0.3265918182769121
16.840301 -0.9263855632214523 -0.3186948362289525
16.940481 -0.9289680135642762 -0.31080470426458084
17.040661 -0.931471706392673 -0.3029216429461665
17.140842 -0.9338973792860009 -0.29504586234489083
17.241022 -0.9362457535123696 -0.28717756243998693
17.341202 -0.9385175342739236 -0.27931693350256714
17.441383 -0.9407134109465533 -0.2714641564645628
17.541563 -0.9428340573139848 -0.26361940327358596
17.641743 -0.9448801317961111 -0.2557828372343313
17.741924 -0.9468522776715703 -0.24795461333721636
17.842104 -0.9487511232945001 -0.24013487857483168
17.942285 -0.9505772823054522 -0.23232377224688283
18.042465 -0.9523313538364823 -0.22452142625412624
18.142645 -0.9540139227104129 -0.21672796538186273
18.242826 -0.9556255596342467 -0.20894350757366587
18.343006 -0.9571668213868534 -0.2011681641956165
18.443186 -0.958638251000873 -0.1934020402917668
18.543367 -0.9600403779389356 -0.18564523483123477
18.643547 -0.9613737182642762 -0.17789784094724312
18.743727 -0.962638774805723 -0.17015994616887856
18.843908 -0.963836037317255 -0.16243163264555605
18.944088 -0.9649659826320797 -0.15471297736501585
19.044269 -0.9660290748114051 -0.14700405236491396
19.144449 -0.9670257652879475 -0.1393049249385629
19.244629 -0.9679564930042707 -0.13161565783513646
19.34481 -0.9688216845460612 -0.12393630945458362
19.44499 -0.969621754270428 -0.11626693403776783
19.54517 -0.970357104429316 -0.1086075818519242
19.645351 -0.9710281252881436 -0.10095829937193085
19.745531 -0.9716351952397719 -0.09331912945750151
19.845711 -0.9721786809138855 -0.08569011152672479
19.945892 -0.9726589372818926 -0.07807128172615915
20.046072 -0.9730763077574721 -0.07046267309762028
20.146253 -0.9734311242928289 -0.06286431574213552
20.246433 -0.9737237074707961 -0.055276236981059046
20.346613 -0.9739543665928531 -0.0476984615147516
20.446794 -0.9741233997631906 -0.04013101157887189
20.546974 -0.9742310939688941 -0.03257390709868735
20.647154 -0.9742777251563668 -0.025027165841330246
20.747335 -0.9742635583040731 -0.017490803566491575
20.847515 -0.9741888474917083 -0.009964834175482273
20.947695 -0.9740538359658818 -0.0024492698589417827
21.047876 -0.9738587562024161 0.005055878756573595
21.148056 -0.9736038299653349 0.012550602463145433
21.248236 -0.9732892683626526 0.020034893326825953
21.348417 -0.9729152718990439 0.027508744543729258
21.448597 -0.9724820305254589 0.03497215029672357
21.548778 -0.971989723685817 0.04242510561250645
21.648958 -0.9714385203608035 0.04986760621903302
21.749138 -0.9708285791089015 0.05729964840302487
21.849319 -0.9701600481047082 0.06472122886763759
21.949499 -0.9694330651746152 0.07213234458988282
22.049679 -0.968647757829957 0.07953299267792341
22.14986 -0.9678042432976635 0.08692317022800611
22.25004 -0.9669026285485122 0.09430287418089195
22.35022 -0.9659430103230618 0.10167210117778311
22.450401 -0.9649254751553216 0.10903084741541919
22.550581 -0.9638500993942095 0.1163791085004971
22.650762 -0.9627169492229347 0.1237168793030515
22.750942 -0.9615260806762845 0.1310441538088769
22.851122 -0.9602775396559506 0.1383609249707266
22.951303 -0.9589713619439341 0.1456671845582508
23.051483 -0.9576075732140897 0.15296292300664022
23.151663 -0.9561861890418921 0.16024812926364115
23.251844 -0.9547072149124729 0.16752279063511638
23.352024 -0.9531706462270173 0.17478689262876398
23.452204 -0.9515764683075432 0.1820404187961211
23.552385 -0.949924656400176 0.18928335057256404
23.652565 -0.9482151756769565 0.19651566711526786
23.752745 -0.9464479812362415 0.20373734513907396
23.852926 -0.9446230181017973 0.21094835874997428
23.953106 -0.9427402212206062 0.2181486792762882
24.053287 -0.940799515459499 0.22533827509733473
24.153467 -0.9388008156006524 0.23251711146938978
24.253647 -0.9367440263360226 0.2396851503490387
24.353828 -0.9346290422608287 0.2468423502135397
24.454008 -0.9324557478660721 0.2539886658782938
24.554188 -0.9302240175302835 0.2611240483111339
24.654369 -0.9279337155104578 0.2682484444434429
24.754549 -0.9255846959323529 0.2753617969778686
24.854729 -0.9231768027801607 0.28246404419253424
24.95491 -0.9207098698856867 0.28955511974171355
25.05509 -0.9181837209171115 0.29663495245260085
25.155271 -0.9155981693673914 0.30370346611833304
25.255451 -0.9129530185424571 0.31076057928690176
25.355631 -0.9102480615492489 0.31780620504590695
25.455812 -0.9074830812837194 0.3248402508030112
25.555992 -0.9046578504189072 0.33186261806194245
25.656172 -0.90177213139318 0.33887320219386735
25.756353 -0.8988256763987965 0.3458718922039982
25.856533 -0.8958182273708358 0.3528585704933975
25.956713 -0.8927495159767248 0.3598331126155335
26.056894 -0.8896192636063693 0.366795387027863
26.157074 -0.8864271813631517 0.37374525483781207
26.257255 -0.8831729700558352 0.3806825695433744
26.357435 -0.8798563201915828 0.3876071767679734
26.457615 -0.8764769119702319 0.3945189139894229
26.557796 -0.8730344152799759 0.40141761026292117
26.657976 -0.8695284896946407 0.4083030859378026
26.758156 -0.865958784472711 0.41517515236798536
26.858337 -0.8623249385583338 0.42203361161577607
26.958517 -0.8586265805844328 0.4288782561490968
27.058697 -0.8548633288781963 0.43570886853168744
27.158878 -0.8510347914691186 0.4425252211063674
27.259058 -0.8471405660998043 0.4493270756709684
27.359238 -0.843180240239824 0.4561141831468536
27.459419 -0.839153391102784 0.46288628323991826
27.559599 -0.835059585666931 0.4696431040936736
27.65978 -0.8308983806995147 0.4763843619344824
27.75996 -0.8266693227851992 0.4831097607086017
27.86014 -0.8223719483588227 0.48981899171085663
27.960321 -0.8180057837427446 0.49651173320491293
28.060501 -0.8135703451892179 0.5031876500347277
28.160681 -0.8090651389279306 0.5098463932272409
28.260862 -0.8044896612192559 0.5164875995859262
28.361042 -0.7998433984133801 0.5231108912752152
28.461222 -0.7951258270158218 0.5297158753954115
28.561403 -0.7903364137596508 0.5363021435480788
28.661583 -0.7854746156847838 0.5428692713917195
28.761764 -0.7805398802248756 0.5494168181874295
28.861944 -0.77553164530209 0.5559443263346187
28.962124 -0.7704493394303668 0.5624513208963333
29.062305 -0.7652923818274743 0.5689373091143282
29.162485 -0.7600601825364921 0.5754017799134792
29.262665 -0.7547521425571382 0.5818442033955671
29.362846 -0.749367653987445 0.5882640303222474
29.463026 -0.7439061001764374 0.5946606915869752
29.563206 -0.7383668558882186 0.6010335976759859
29.663387 -0.7327492874782171 0.6073821381179342
29.763567 -0.7270527530820499 0.6137056809223566
29.863747 -0.7212766028177235 0.6200035720066804
29.963928 -0.7154201790018286 0.6262751346117401
30.064108 -0.7094828163802893 0.6325196687058275
30.164289 -0.7034638423745384 0.6387364503770661
30.264469 -0.6973625773436665 0.6449247312141815
30.364649 -0.6911783348634439 0.6510837376756027
30.46483 -0.6849104220228567 0.6572126704468487
30.56501 -0.6785581397390372 0.663310703786337
30.66519 -0.6721207830914312 0.6693769848594247
30.765371 -0.6655976416759254 0.6754106330609686
30.865551 -0.6589879999799981 0.6814107393263156
30.965731 -0.6522911377796127 0.6873763654308815
31.065912 -0.6455063305589667 0.6933065432784202
31.166092 -0.6386328499538783 0.6992002741781898
31.266273 -0.631669964219971 0.7050565281110598
31.366453 -0.6246169387265939 0.7108742429849066
31.466633 -0.6174730364774521 0.7166523238795401
31.566814 -0.6102375186592487 0.7223896422812561
31.666994 -0.602909645219152 0.7280850353076476
31.767174 -0.5954886754725557 0.733737304922611
31.867355 -0.5879738687419596 0.7393452171424383
31.967535 -0.5803644850284526 0.7449075012329984
32.067715 -0.5726597857169152 0.7504228488987035
32.167896 -0.5648590343160915 0.7558899134638882
32.268076 -0.5569614972350453 0.7613073090469631
32.368257 -0.5489664445970998 0.7666736097281511
32.468437 -0.5408731510927612 0.7719873487114884
32.568617 -0.5326808968728326 0.7772470174818796
32.668798 -0.5243889684833021 0.7824510649579082
32.768978 -0.5159966598432861 0.7875978966414972
32.869158 -0.5075032732674485 0.792685873765308
32.969339 -0.4989081205345425 0.7977133124388511
33.069519 -0.49021052400329856 0.8026784827945952
33.169699 -0.4814098177774123 0.8075796081351782
33.26988 -0.4725053489209532 0.812414864083032
33.37006 -0.46349647872583577 0.8171823777338911
33.47024 -0.45438258403292475 0.8218802268155374
33.570421 -0.44516305860814265 0.8265064388535175
33.670601 -0.4358373145754054 0.8310589903453969
33.770782 -0.42640478390766845 0.8355358059454634
33.870962 -0.4168649199779329 0.8399347576616059
33.971142 -0.40721719917142324 0.8442536640666554
34.071323 -0.3974611225607832 0.8484902895261041
34.171503 -0.38759621764566343 0.8526423434445531
34.271683 -0.37762204015815276 0.8567074795333258
34.371864 -0.367538175935681 0.8606832951017374
34.472044 -0.3573442428626902 0.8645673303746475
34.572224 -0.34703989288258247 0.8683570678392034
34.672405 -0.33662481408115796 0.8720499316236441
34.772585 -0.3260987328430271 0.8756432869112911
34.872766 -0.31546141608209394 0.87913443939298
34.972946 -0.30471267354723924 0.882520634761355
35.073126 -0.29385236020448824 0.8857990582505519
35.173307 -0.2828803786963399 0.8889668342250474
35.273487 -0.2717966818794914 0.8920210258215022
35.373667 -0.260601275441375 0.8949586346477096
35.473848 -0.24929422059645157 0.8977766005428197
35.574028 -0.23787563686262597 0.9004718014032287
35.674208 -0.226345704918062 0.9030410530787185
35.774389 -0.21470466953884154 0.9054811093434881
35.874569 -0.20295284261715968 0.9077886619470392
35.974749 -0.19109060626021074 0.9099603407498507
36.07493 -0.17911841596906503 0.9119927139491288
36.17511 -0.1670368038971609 0.9138822883999134
36.275291 -0.15484638218749375 0.9156255100370511
36.375471 -0.14254784638725765 0.9172187644036769
36.475651 -0.13014197893883095 0.9186583772919412
36.575832 -0.11762965274511672 0.9199406155018868
36.676012 -0.10501183480757725 0.9210616877244591
36.776192 -0.09228958993431413 0.9220177455547378
36.876373 -0.07946408451585546 0.9228048846415591
36.976553 -0.06653659036545018 0.9234191459797734
37.076733 -0.05350848862041396 0.9238565173514075
37.176914 -0.04038127370099198 0.924112934922054
37.277094 -0.02715655732214234 0.9241842849987723
37.377275 -0.01383607255402547 0.9240664059557995
37.477455 -0.00042167792566438766 0.9237550903342882
37.577635 0.013084638433445428 0.9232460871222261
37.677816 0.026680754619907432 0.9225351042205376
37.777996 0.040364410757899594 0.9216178111012483
37.878176 0.05413320478218181 0.9204898416633753
37.978357 0.06798458821061087 0.919146797291955
38.078537 0.08191586191377026 0.9175842501253602
38.178717 0.09592417189066799 0.9157977465356953
38.278898 0.11000650505924836 0.9137828108266657
38.379078 0.1241596850714134 0.9115349491528802
38.479259 0.13838036816277977 0.9090496536640211
38.579439 0.15266503904735723 0.9063224068767516
38.679619 0.1670100068686367 0.9033486862765305
38.7798 0.1814114012180627 0.900123969150923
38.87998 0.19586516823326156 0.8966437376549656
38.98016 0.21036706678785116 0.892903484108543
39.080341 0.22491266478556277 0.88889871652457
39.180521 0.23949733557171587 0.8846249643657528
39.280701 0.2541162544745874 0.8800777845267171
39.380882 0.26876439549044073 0.8752527675368
39.481062 0.28343652812480663 0.8701455439777684
39.581242 0.29812721440369055 0.8647517911089733
39.681423 0.312830806067253 0.8590672396912313
39.781603 0.32754144195872015 0.8530876809988487
39.881784 0.3422530456208923 0.8468089740075064
39.981964 0.35695932311135764 0.8402270527440191
40.082144 0.37165376104764997 0.8333379337816755
40.182325 0.3863296248915446 0.8261377238632117
