! Created with skrf (http://scikit-rf.org).
# GHz S RI R 50.0 
! Port[1] = signal_pkg_L4_trace_N_T1
! Port[2] = signal_BGA_N_0_T1
!freq ReS11 ImS11 ReS21 ImS21 ReS12 ImS12 ReS22 ImS22
0.01 0.0007361494201063575 1.0835515013241091e-05 0.9992420319599661 -0.0015136189846884915 0.999242031959937 -0.0015136189847169135 0.0007365097670515295 1.0040476809081156e-05
0.11018036 0.0007971655318836924 -5.324027527464639e-05 0.9988107921836424 -0.01612402094592012 0.998810791927438 -0.01612402113766009 0.0008410785460237765 -7.189273272345522e-05
0.21036072 0.0008462356100085161 -0.00017723838033134658 0.9981604489925204 -0.030497669501343756 0.9981604489489171 -0.03049766958952212 0.0009980186161890924 -0.00022539030628721004
0.31054108 0.000865274844889852 -0.0003395059812927318 0.997309031777605 -0.044832055836010916 0.9973090317750039 -0.04483205588216593 0.0011937638632349404 -0.00040172876127719646
0.41072144 0.0008463031293388869 -0.0005369370997190255 0.9962376219574264 -0.05906000052296171 0.9962376219628012 -0.059060000546495 0.0014229901923364869 -0.0006301166988329497
0.5109018 0.0007800778420538922 -0.0007602823183070504 0.9949702354881855 -0.07319024815252018 0.9949702354919424 -0.07319024816352293 0.0016689163615337915 -0.0009056533339144571
0.61108216 0.0006617148037872077 -0.0009993213068986118 0.9935207697879659 -0.0872405793937406 0.9935207697880992 -0.08724057939759343 0.0019229834296853616 -0.0012177566849036487
0.71126253 0.0004900929726029424 -0.0012449914554340002 0.9918931449400756 -0.10122617824156072 0.9918931449374814 -0.10122617824127374 0.002183139827745428 -0.0015574490577643352
0.81144289 0.0002663076686274524 -0.0014902401966629959 0.9900858260548975 -0.11515696297882544 0.990085826051583 -0.11515696297641302 0.0024504746524263697 -0.0019189981233571599
0.91162325 -7.6210382899387275e-06 -0.0017299428696380156 0.9880951967710123 -0.12903801268989748 0.9880951967693229 -0.1290380126871887 0.002726994338260405 -0.0022995067366857747
1.0118036 -0.00032644684487753744 -0.001966936176129415 0.985920613931639 -0.14287040344405752 0.985920613933268 -0.14287040344280266 0.003020969981957777 -0.0026963719994239654
1.111984 -0.0006759500634663678 -0.0022318345305722947 0.9835801944076719 -0.15665537150401185 0.9835801944090659 -0.15665537150306688 0.003361483627321078 -0.0031068462438326163
1.2121643 -0.0010799654442582545 -0.002469040987666645 0.9810490793295054 -0.17039641166074973 0.9810490793306952 -0.1703964116600351 0.0036954835512814665 -0.0035434361241897284
1.3123447 -0.0015331793265816517 -0.002679176723088258 0.978327452514107 -0.18409014314191882 0.9783274525151198 -0.18409014314137748 0.0040294064227606174 -0.004000908809963283
1.4125251 -0.002031505650989851 -0.0028627201729585342 0.9754160145148506 -0.19773357740297318 0.9754160145157111 -0.1977335774025645 0.004367821693157802 -0.004477025422818582
1.5127054 -0.0025717493650419627 -0.0030199802434420662 0.9723157323936146 -0.21132404936180194 0.9723157323943398 -0.21132404936149748 0.0047138401250289026 -0.004971240897909009
1.6128858 -0.003151367830799795 -0.003151101398129782 0.9690276908097888 -0.2248591407665992 0.9690276908103953 -0.22485914076637456 0.0050694658511024615 -0.005483957245959741
1.7130661 -0.0037682999413910056 -0.0032560792340636663 0.9655530065562742 -0.23833660995490474 0.9655530065567752 -0.23833660995474054 0.005435873666947423 -0.006016089326483793
1.8132465 -0.004420841991910681 -0.0033347781655095254 0.9618927828339853 -0.2517543329221539 0.9618927828343915 -0.2517543329220359 0.00581361954823073 -0.006568810710746888
1.9134269 -0.005107556132152863 -0.0033869482469914666 0.9580480882033956 -0.2651102565248607 0.9580480882037207 -0.2651102565247778 0.006202797832829228 -0.007143405102449705
2.0136072 -0.005827201853514143 -0.0034122403213599044 0.9540199505316486 -0.27840236289994547 0.9540199505318993 -0.2784023628998866 0.006603157634967013 -0.007741180386666303
2.1137876 -0.006578684037521957 -0.0034102194652419404 0.9498093596780273 -0.29162864352364803 0.9498093596782143 -0.2916286435236075 0.007014188697616852 -0.008363420070771652
2.2139679 -0.007361013123173927 -0.003380376939280649 0.9454172748852011 -0.30478708118623227 0.9454172748853304 -0.30478708118619935 0.007435184547566738 -0.009011357037800302
2.3141483 -0.008173274293782345 -0.0033221408800247873 0.9408446343105747 -0.31787563824904735 0.9408446343106525 -0.3178756382490206 0.007865288880019911 -0.009686160498102883
2.4143287 -0.009014603481917707 -0.003234885935553037 0.9360923651068138 -0.33089224974310144 0.9360923651068486 -0.33089224974307513 0.008303529595194727 -0.010388930597662565
2.514509 -0.009884168599693335 -0.003117942001814171 0.9311613931082047 -0.34383482009357536 0.931161393108202 -0.3438348200935449 0.008748843770747377 -0.01112069731352452
2.6146894 -0.01078115482147238 -0.0029706021785380677 0.9260526516062934 -0.35670122247763686 0.9260526516062592 -0.3567012224776033 0.009200096001175481 -0.011882421601319772
2.7148697 -0.011704753041191278 -0.0027921300357940334 0.9207670889748399 -0.369489300025827 0.9207670889747797 -0.36948930002578423 0.0096560918997701 -0.012674997584285235
2.8150501 -0.012654150838097537 -0.0025817662633644345 0.9153056750783373 -0.3821968682533118 0.9153056750782547 -0.38219686825326055 0.010115588086079907 -0.013499255082670893
2.9152305 -0.013628525439217231 -0.0023387347624039974 0.9096694065034145 -0.3948217182545254 0.9096694065033165 -0.39482171825446216 0.010577299631063512 -0.014355962095651048
3.0154108 -0.01462703828170784 -0.002062248230372489 0.9038593107111398 -0.4073616203147846 0.9038593107110281 -0.40736162031471335 0.011039905672247005 -0.015245827038192787
3.1155912 -0.01564883086478031 -0.0017515132840161018 0.8978764492366176 -0.41981432768815374 0.8978764492364982 -0.41981432768807114 0.011502053719096282 -0.016169500648653492
3.2157715 -0.016693021647010083 -0.0014057351604087587 0.8917219200712959 -0.43217758036560927 0.8917219200711715 -0.43217758036552 0.011962363027239188 -0.017127577548161004
3.3159519 -0.017758703795708767 -0.0010241220319965284 0.8853968593605765 -0.44444910871502813 0.8853968593604501 -0.4444491087149278 0.012419427315998809 -0.01812059746844485
3.4161323 -0.018844943634605843 -0.0006058889679109061 0.8789024425397446 -0.45662663691775607 0.8789024425396184 -0.45662663691764754 0.012871817027417541 -0.01914904618229021
3.5163126 -0.019950779666911812 -0.00015026157032653294 0.8722398850182403 -0.4687078861586769 0.8722398850181163 -0.46870788615856324 0.01331808126916441 -0.02021335617761757
3.616493 -0.021075222075007363 0.000343520688578051 0.8654104425080663 -0.48069057754978456 0.8654104425079474 -0.48069057754966704 0.013756749543165456 -0.021313907116866218
3.7166733 -0.022217252616953218 0.000876201406618099 0.8584154110779075 -0.4925724347837499 0.8584154110777954 -0.49257243478362783 0.014186333332341672 -0.022451026120783094
3.8168537 -0.02337582485491034 0.0014485044489567205 0.8512561270012151 -0.5043511865251635 0.8512561270011092 -0.5043511865250404 0.014605327596578217 -0.02362498791162711
3.9170341 -0.02454986466226473 0.002061131385854839 0.8439339664543686 -0.5160245685544497 0.8439339664542728 -0.5160245685543263 0.015012212213807954 -0.024836014846153033
4.0172144 -0.025738270965452413 0.0027147591561934746 0.8364503451104063 -0.5275903256838255 0.836450345110319 -0.527590325683705 0.015405453391122799 -0.02608427686418591
4.1173948 -0.026939916683645336 0.003410037944223741 0.8288067176644512 -0.5390462134670936 0.8288067176643733 -0.5390462134669751 0.015783505063078872 -0.02736989137444213
4.2175752 -0.028153649835192845 0.004147589258778592 0.8210045773191559 -0.5503899997258008 0.821004577319088 -0.5503899997256847 0.016144810288863762 -0.028692923095479706
4.3177555 -0.029378294784050216 0.00492800420567294 0.8130454552517995 -0.5616194659141458 0.8130454552517423 -0.561619465914035 0.016487802656127187 -0.030053383866598643
4.4179359 -0.030612653602974615 0.005751841945264296 0.8049309200791742 -0.5727324083440419 0.8049309200791266 -0.5727324083439382 0.016810907696602297 -0.0314512324407933
4.5181162 -0.03185550753296063 0.006619628328083661 0.7966625773318379 -0.583726639290422 0.7966625773317993 -0.5837266392903275 0.01711254431676809 -0.032886374269716336
4.6182966 -0.033105618520546436 0.007531854702211318 0.788242068945642 -0.5945999879952124 0.7882420689456126 -0.5945999879951255 0.017391126245534246 -0.03435866128884839
4.718477 -0.034361730816355046 0.008488976886574276 0.7796710727754832 -0.6053503015865845 0.7796710727754622 -0.6053503015865072 0.017645063500049983 -0.03586789170962932
4.8186573 -0.03562257261960123 0.009491414304680403 0.7709513021338623 -0.61597544592837 0.7709513021338468 -0.6159754459283044 0.01787276387015013 -0.037413809824208666
4.9188377 -0.03688685775443396 0.010539549273478053 0.762084505355001 -0.6264733064126509 0.7620845053549914 -0.6264733064125961 0.0180726344215334 -0.038996105827539984
5.019018 -0.03815328736496798 0.011633726442051632 0.7530724653839106 -0.6368417887068423 0.7530724653839077 -0.6368417887067993 0.018243083017485652 -0.040614415660892966
5.1191984 -0.03942055161665938 0.012774252374782896 0.7439169993887189 -0.6470788194649638 0.7439169993887204 -0.6470788194649332 0.018382519858763244 -0.04226832088025659
5.2193788 -0.04068733139245795 0.013961395273440516 0.7346199583938227 -0.6571823470113036 0.7346199583938267 -0.6571823470112842 0.018489359041085777 -0.04395734855271804
5.3195591 -0.0419522999728659 0.015195384832384804 0.7251832269309905 -0.6671503420032484 0.7251832269309958 -0.6671503420032412 0.018562020129567335 -0.04568097118353672
5.4197395 -0.04321412468968692 0.0164764122208246 0.7156087227051591 -0.6769807980788475 0.7156087227051668 -0.6769807980788524 0.018598929749304566 -0.04743860667637333
5.5199198 -0.04447146854394213 0.01780463018565642 0.7058983962716047 -0.6866717324935258 0.7058983962716144 -0.6866717324935401 0.01859852319122764 -0.049229618328906294
5.6201002 -0.045722991779064186 0.019180153268152048 0.696054230721102 -0.6962211867493642 0.6960542307211085 -0.69622118674939 0.018559246032246443 -0.05105331486589693
5.7202806 -0.04696735340117746 0.020603058127329894 0.6860782413697971 -0.705627227219504 0.6860782413698024 -0.7056272272195392 0.01847955576859084 -0.052908950511589156
5.8204609 -0.04820321263895196 0.022073383962558958 0.6759724754507264 -0.714887945769432 0.6759724754507311 -0.7148879457694771 0.018357923461177827 -0.05479572510321205
5.9206413 -0.0494292303362249 0.02359113302758846 0.6657390118040694 -0.7240014603762969 0.6657390118040711 -0.7240014603763496 0.018192835391723935 -0.05671278424719287
6.0208216 -0.050644070271306664 0.02515627122792261 0.6553799605635637 -0.7329659157467981 0.6553799605635616 -0.7329659157468577 0.01798279472824189 -0.05865921951959592
6.121002 -0.05184640039764028 0.026768728793192944 0.644897462836786 -0.7417794839337851 0.6448974628367806 -0.7417794839338495 0.017726323198452486 -0.06063406871215706
6.2211824 -0.053034894001203356 0.028428401015981992 0.6342936903773246 -0.7504403649512624 0.6342936903773144 -0.7504403649513326 0.017421962769582754 -0.06263631612517251
6.3213627 -0.05420823077082591 0.030135149048396207 0.6235708452472027 -0.7589467873872788 0.6235708452471895 -0.7589467873873519 0.017068277332914217 -0.064664892908376
6.4215431 -0.055365097778355146 0.03188880074753589 0.612731159468245 -0.7672970090138759 0.6127311594682276 -0.7672970090139499 0.016663854391407888 -0.06671867745081582
6.5217234 -0.05650419036632311 0.0336891515610277 0.6017768946613957 -0.7754893173931638 0.6017768946613758 -0.7754893173932388 0.01620730674864742 -0.0687964958206143
6.6219038 -0.05762421294158062 0.035535965443697345 0.5907103416733178 -0.7835220304784862 0.5907103416732922 -0.7835220304785607 0.01569727419729778 -0.07089712225536855
6.7220842 -0.05872387967403591 0.03742897579659473 0.5795338201898836 -0.7913934972095361 0.5795338201898567 -0.7913934972096093 0.015132425205245324 -0.07301927970383715
6.8222645 -0.059801915100411274 0.03936788641962105 0.5682496783364757 -0.7991020981003567 0.5682496783364459 -0.799102098100427 0.014511458597550401 -0.07516164041939936
6.9224449 -0.060857054633579426 0.04135237246922184 0.556860292265207 -0.8066462458191187 0.5568602922651772 -0.8066462458191841 0.013833105232316243 -0.07732282660569231
7.0226253 -0.06188804497876419 0.04338208141277106 0.5453680657294642 -0.8140243857586861 0.5453680657294326 -0.8140243857587468 0.01309612966859224 -0.07950141111468063
7.1228056 -0.0628936444584806 0.0454566339715524 0.5337754296463373 -0.8212349965970516 0.533775429646309 -0.8212349965971056 0.012299331824413907 -0.08169591819730386
7.222986 -0.06387262324872885 0.047575625044526705 0.5220848416476853 -0.8282765908468357 0.5220848416476577 -0.828276590846885 0.011441548623103481 -0.08390482430674126
7.3231663 -0.06482376352951486 0.04973862460541367 0.5102987856207069 -0.8351477153932076 0.5102987856206834 -0.8351477153932478 0.010521655625981131 -0.08612655895422584
7.4233467 -0.06574585955331473 0.051945178565956505 0.49841977123906994 -0.8418469520196926 0.4984197712390511 -0.8418469520197248 0.009538568649654236 -0.08835950561723463
7.5235271 -0.06663771763556503 0.05419480959867421 0.4864503334856437 -0.8483729179215583 0.48645033348562994 -0.8483729179215824 0.008491245366113597 -0.09060200269979961
7.6237074 -0.06749815607174288 0.05648701791279323 0.4743930321680433 -0.8547242662065447 0.4743930321680362 -0.8547242662065601 0.007378686883885339 -0.09285234454459151
7.7238878 -0.06832600498598809 0.058821281977506745 0.4622504514281349 -0.860899686382974 0.4622504514281387 -0.860899686382981 0.006199939308553516 -0.09510878249637018
7.8240681 -0.06912010611658598 0.06119705918716057 0.45002519924675766 -0.8668979048353758 0.4500251992467707 -0.8668979048353745 0.004954095281019354 -0.0973695260163052
7.9242485 -0.06987931254397384 0.06361378646344062 0.437719906944825 -0.8727176852879573 0.437719906944849 -0.8727176852879487 0.003640295491913208 -0.09963274384664544
8.0244289 -0.07060248836720176 0.0660708807901138 0.42533722868198204 -0.8783578292564178 0.4253372286820184 -0.8783578292564025 0.0022577301706465393 -0.10189656522514208
8.1246092 -0.07128850833501127 0.06856773967636212 0.4128798409539275 -0.8838171764887541 0.41287984095397606 -0.8838171764887336 0.000805640547632234 -0.10415908114860661
8.2247896 -0.07193625743793987 0.07110374154523781 0.40035044208945586 -0.8890946053958431 0.40035044208952025 -0.8890946053958162 -0.0007166797117154354 -0.10641834568495824
8.3249699 -0.0725446304680117 0.07367824604422896 0.3877517517481352 -0.8941890334727505 0.3877517517482118 -0.8941890334727216 -0.002309883102560027 -0.10867237733308532
8.4251503 -0.07311253155268321 0.07629059427547166 0.37508651041948476 -0.8990994177118289 0.3750865104195765 -0.899099417711797 -0.003974566907085729 -0.11091916042984358
8.5253307 -0.07363887366988546 0.07894010894353791 0.3623574789243979 -0.9038247550087548 0.36235747892450354 -0.9038247550087222 -0.005711271853044758 -0.11315664660350694
8.625511 -0.07412257815100362 0.08162609441927839 0.34956743791936934 -0.9083640825628179 0.34956743791948813 -0.9083640825627862 -0.007520480805607631 -0.11538275627298587
8.7256914 -0.07456257417875159 0.0843478367186072 0.33671918740401136 -0.9127164782728057 0.33671918740414275 -0.9127164782727744 -0.009402617493672846 -0.11759538019214595
8.8258717 -0.0749577982868777 0.08710460339560254 0.32381554623215525 -0.9168810611299126 0.3238155462322986 -0.9168810611298853 -0.011358045271743847 -0.11979238103856336
8.9260521 -0.07530719386866012 0.08989564334972594 0.31085935162670214 -0.920856991609208 0.31085935162685363 -0.9208569916091844 -0.013387065918484554 -0.12197159504609195
9.0262325 -0.07560971070112193 0.09272018654739235 0.2978534586982087 -0.9246434720611396 0.29785345869836644 -0.9246434720611213 -0.0154899184730028 -0.1241308336806176
9.1264128 -0.07586430449187573 0.09557744365856903 0.2848007399670131 -0.928239747104705 0.28480073996717586 -0.9282397471046929 -0.01766677810994097 -0.12626788535842076
9.2265932 -0.07606993645542136 0.09846660560947791 0.2717040848886068 -0.9316451040238264 0.27170408488876946 -0.9316451040238206 -0.019917755054405673 -0.1283805172065935
9.3267735 -0.07622557292569865 0.10138684305285701 0.25856639938168796 -0.9348588731685238 0.25856639938184794 -0.9348588731685252 -0.022242893537811 -0.1304664768649775
9.4269539 -0.07633018501156266 0.10433730575769329 0.24539060535823085 -0.9378804283624572 0.2453906053583814 -0.9378804283624654 -0.024642170795677085 -0.1325234943291341
9.5271343 -0.07638274830180068 0.10731712192066972 0.23217964025471777 -0.9407091873183548 0.23217964025485516 -0.9407091873183683 -0.02711549610850525 -0.1345492838338901
9.6273146 -0.0763822426261786 0.11032539740195761 0.2189364565635093 -0.943344612062826 0.2189364565636277 -0.9433446120628426 -0.029662709886801107 -0.1365415457769973
9.727495 -0.07632765187889862 0.11336121488840263 0.20566402136312795 -0.9457862093719883 0.2056640213632236 -0.9457862093720074 -0.032283582801436846 -0.13849796868252875
9.8276754 -0.07621796391073025 0.11642363298745857 0.19236531584613148 -0.948033531219261 0.192365315846197 -0.9480335312192782 -0.034977814960514546 -0.1404162312036069
9.9278557 -0.0760521704959352 0.11951168525564274 0.17904333484302773 -0.9500861752365973 0.17904333484305518 -0.9500861752366074 -0.03774503513400191 -0.14229400416408766
10.028036 -0.07582881010093051 0.12261773143705676 0.16569351828762477 -0.9519451607159513 0.16569351828762027 -0.9519451607159541 -0.04058814840157943 -0.14412820961066883
10.128216 -0.07554722603298145 0.12572883138028484 0.15230783674773524 -0.9536119142861793 0.15230783674773266 -0.9536119142861847 -0.04351119572287785 -0.14591528893302708
10.228397 -0.07520837296725809 0.1288601287238566 0.13890930535888282 -0.9550825252143866 0.13890930535888044 -0.9550825252143941 -0.0465045397492569 -0.14765487160282423
10.328577 -0.07481150913917166 0.13201043186269606 0.12550099358047237 -0.9563569566733306 0.1255009935804687 -0.9563569566733422 -0.049567479367563824 -0.1493447375166562
10.428758 -0.07435592008046504 0.13517852890639842 0.1120859706878611 -0.957435224761785 0.11208597068785739 -0.9574352247617975 -0.052699244298072566 -0.15098267649851596
10.528938 -0.07384091913534319 0.1383631883432607 0.09866730475549952 -0.9583173985586559 0.09866730475549639 -0.9583173985586714 -0.05589899523664076 -0.1525664905076998
10.629118 -0.07326584796103985 0.14156315971700767 0.08524806163638415 -0.9590036001571735 0.08524806163637914 -0.959003600157192 -0.059165824068117344 -0.15409399584427655
10.729299 -0.07263007701251738 0.14477717431591897 0.07183130393836469 -0.9594940046790107 0.07183130393835925 -0.9594940046790322 -0.06249875415087748 -0.1555630253498599
10.829479 -0.07193300601096496 0.14800394587410956 0.05842008999738813 -0.9597888402683029 0.058420089997381 -0.9597888402683263 -0.06589674067237608 -0.15697143060154123
10.929659 -0.07117406439580774 0.15124217128473658 0.045017472847700024 -0.959888388065454 0.045017472847691226 -0.9598883880654804 -0.06935867107565388 -0.1583170840967567
11.02984 -0.07035271175987201 0.154490531324783 0.03162649918956358 -0.9597929821605872 0.031626499189554305 -0.9597929821606165 -0.07288336555643392 -0.15959788142688525
11.13002 -0.06946843826740919 0.15774769139123193 0.018250208354234628 -0.9595030095265081 0.01825020835422478 -0.9595030095265394 -0.07646957763070517 -0.16081174343740876
11.2302 -0.06852076505463646 0.1610123022482212 0.00489163126682844 -0.9590189099309802 0.004891631266817109 -0.9590189099310132 -0.08011599477229914 -0.1619566183724151
11.330381 -0.0675092446124548 0.16428300078498864 -0.008446210593162242 -0.9583411758281141 -0.008446210593175744 -0.958341175828149 -0.08382123912022797 -0.16303048400127113
