! Touchstone_Model_2
! Exported from Nexxim 
# GHZ S MA R 50.000000
! Modal data exported
! Port[1] = Port1
! Port[2] = Port2
! Port[3] = Port3
! Port[4] = Port4
0.000000000000000E+000 2.633811870593000E-001 1.800000000000000E+002 5.551115123125998E-017 1.800000000000000E+002 1.110223024625000E-016 -6.973071623143481E-031 4.202725177646001E-001 8.295892936601915E-031 
                0.000000000000000E+000 0.000000000000000E+000 9.999999999990002E-001 -2.611468588380430E-062 1.665334536938000E-016 -1.160652705945513E-062 0.000000000000000E+000 0.000000000000000E+000 
                0.000000000000000E+000 0.000000000000000E+000 2.636779683485001E-016 1.800000000000000E+002 9.999999999990002E-001 0.000000000000000E+000 0.000000000000000E+000 0.000000000000000E+000 
                4.202725177674999E-001 4.558893680697204E-031 9.010715955292965E-033 1.217950277626139E-014 6.938893903907002E-017 -2.452451488538907E-030 2.633881863445999E-001 1.800000000000000E+002 
! Port Impedance  5.000000000000000E+001 0.000000000000000E+000 5.000000000000000E+001 0.000000000000000E+000 5.000000000000000E+001 0.000000000000000E+000 5.000000000000000E+001 0.000000000000000E+000 

1.000000000000000E-002 1.579452323136727E-001 1.046307128590885E+002 3.535616167828952E-003 -9.208839873382168E+001 9.618124520332460E-001 6.765601809859738E+000 3.283616958997445E-003 1.067129888165988E+002 
                3.535616167928920E-003 -9.208839873322931E+001 1.568130890538846E-001 1.020409817895596E+002 3.809240286696916E-003 6.967030615526076E+001 9.617467201107131E-001 6.727668861723858E+000 
                9.618124520288949E-001 6.765601809852557E+000 3.809240286756751E-003 6.967030615722523E+001 1.563230175613210E-001 1.021528064703076E+002 3.535507380570423E-003 -9.206404641247492E+001 
                3.283616958904620E-003 1.067129888178861E+002 9.617467201122624E-001 6.727668861719728E+000 3.535507380690548E-003 -9.206404641176944E+001 1.584080135825776E-001 1.045768572445101E+002 
! Port Impedance  5.000000000000000E+001 0.000000000000000E+000 5.000000000000000E+001 0.000000000000000E+000 5.000000000000000E+001 0.000000000000000E+000 5.000000000000000E+001 0.000000000000000E+000 

2.000000000000000E-002 8.436998609535013E-002 1.036042453526605E+002 6.867353639253639E-003 -9.880061657819284E+001 9.656070640409390E-001 -3.470220020180912E+000 6.560929101135819E-003 8.989705655381241E+001 
                6.867353639238576E-003 -9.880061657799330E+001 8.729344542635253E-002 9.359189208887214E+001 7.297443298543570E-003 7.269507698150368E+001 9.655124823045720E-001 -3.544686736938076E+000 
                9.656070640433467E-001 -3.470220020186088E+000 7.297443298559627E-003 7.269507698168812E+001 8.628961437152768E-002 9.380119544540534E+001 6.866720228448609E-003 -9.879103714184181E+001 
                6.560929101182898E-003 8.989705655349277E+001 9.655124823074747E-001 -3.544686736938739E+000 6.866720228415531E-003 -9.879103714157229E+001 8.525755140960345E-002 1.033678224494766E+002 
! Port Impedance  5.000000000000000E+001 0.000000000000000E+000 5.000000000000000E+001 0.000000000000000E+000 5.000000000000000E+001 0.000000000000000E+000 5.000000000000000E+001 0.000000000000000E+000 

3.000000000000000E-002 7.936440587013381E-002 1.010123963804597E+002 1.018869297081798E-002 -1.036374587692805E+002 9.614492192135081E-001 -8.449133454653614E+000 9.703063225635539E-003 8.368242787849408E+001 
                1.018869297084454E-002 -1.036374587693299E+002 8.680117689455141E-002 8.917989865921854E+001 1.083040670988781E-002 6.915469703828477E+001 9.613062124719980E-001 -8.560321633488975E+000 
                9.614492192053269E-001 -8.449133452497998E+000 1.083040671002642E-002 6.915469703849566E+001 8.529687638106967E-002 8.943465770030616E+001 1.018637945615588E-002 -1.036315879757386E+002 
                9.703063225736101E-003 8.368242787868401E+001 9.613062124808049E-001 -8.560321629684175E+000 1.018637945608545E-002 -1.036315879760387E+002 8.063673361041319E-002 1.005751193629945E+002 
! Port Impedance  5.000000000000000E+001 0.000000000000000E+000 5.000000000000000E+001 0.000000000000000E+000 5.000000000000000E+001 0.000000000000000E+000 5.000000000000000E+001 0.000000000000000E+000 

4.000000000000000E-002 8.377269158308361E-002 9.537312692488241E+001 1.345135059918583E-002 -1.082219549701249E+002 9.590880034440400E-001 -1.259030266908629E+001 1.276908290706448E-002 7.912197306022452E+001 
                1.345135059919582E-002 -1.082219549697244E+002 9.573221804775493E-002 8.357578998618156E+001 1.426790666460694E-002 6.451469992003391E+001 9.588849527872297E-001 -1.273728095847979E+001 
                9.590880034336282E-001 -1.259030266693633E+001 1.426790666470186E-002 6.451469992058381E+001 9.373996141763004E-002 8.381493930682505E+001 1.344620505524404E-002 -1.082150650107757E+002 
                1.276908290717433E-002 7.912197306002371E+001 9.588849527957208E-001 -1.273728095469867E+001 1.344620505518915E-002 -1.082150650106744E+002 8.543478497915383E-002 9.480282781268457E+001 
! Port Impedance  5.000000000000000E+001 0.000000000000000E+000 5.000000000000000E+001 0.000000000000000E+000 5.000000000000000E+001 0.000000000000000E+000 5.000000000000000E+001 0.000000000000000E+000 

5.000000000000000E-002 9.086664828492624E-002 8.906125564007985E+001 1.664204510078301E-002 -1.126725372916336E+002 9.572390000644901E-001 -1.644813113930178E+001 1.573911114754322E-002 7.510474632008751E+001 
                1.664204510060258E-002 -1.126725372907326E+002 1.069454420074632E-001 7.808474819217565E+001 1.759088705082590E-002 5.958141507154597E+001 9.569659829808879E-001 -1.662949523380317E+001 
                9.572390001472694E-001 -1.644813113889558E+001 1.759088705051989E-002 5.958141507146940E+001 1.044896031378694E-001 7.828385669767565E+001 1.663261100003342E-002 -1.126629191525213E+002 
                1.573911114750284E-002 7.510474631918166E+001 9.569659830733018E-001 -1.662949523659146E+001 1.663261100008872E-002 -1.126629191509686E+002 9.291568134677321E-002 8.840342962895026E+001 
! Port Impedance  5.000000000000000E+001 0.000000000000000E+000 5.000000000000000E+001 0.000000000000000E+000 5.000000000000000E+001 0.000000000000000E+000 5.000000000000000E+001 0.000000000000000E+000 

6.000000000000000E-002 9.906645592153998E-002 8.292992628802199E+001 1.975268987150243E-002 -1.170218502504757E+002 9.554191881601416E-001 -2.017747507282729E+001 1.858513104934252E-002 7.135615330973276E+001 
                1.975268987099176E-002 -1.170218502491252E+002 1.188240240353698E-001 7.307245453970896E+001 2.079961673343691E-002 5.454520895463911E+001 9.550621710955536E-001 -2.039262201578517E+001 
                9.554191883588371E-001 -2.017747506851448E+001 2.079961673251076E-002 5.454520895322099E+001 1.159351788089816E-001 7.322852576641903E+001 1.973717994132742E-002 -1.170080262664111E+002 
                1.858513104910223E-002 7.135615330848779E+001 9.550621713414429E-001 -2.039262201915217E+001 1.973717994151755E-002 -1.170080262629074E+002 1.014894656449265E-001 8.220705863985933E+001 
! Port Impedance  5.000000000000000E+001 0.000000000000000E+000 5.000000000000000E+001 0.000000000000000E+000 5.000000000000000E+001 0.000000000000000E+000 5.000000000000000E+001 0.000000000000000E+000 

7.000000000000001E-002 1.077266982321339E-001 7.716742251214973E+001 2.277764248513584E-002 -1.212790947568255E+002 9.536422853848259E-001 -2.384297890598583E+001 2.128134677867704E-002 6.778867851060882E+001 
                2.277764248466683E-002 -1.212790947560786E+002 1.307978770486953E-001 6.849687308457659E+001 2.389809977141983E-002 4.945922955660504E+001 9.532009085909330E-001 -2.409186695000269E+001 
                9.536422855174701E-001 -2.384297890009404E+001 2.389809977075722E-002 4.945922955519347E+001 1.275100827752128E-001 6.861392127512750E+001 2.275396850887872E-002 -1.212595172715411E+002 
                2.128134677853280E-002 6.778867850992120E+001 9.532009087806080E-001 -2.409186694929948E+001 2.275396850899321E-002 -1.212595172687988E+002 1.105090422622536E-001 7.638942967825670E+001 
! Port Impedance  5.000000000000000E+001 0.000000000000000E+000 5.000000000000000E+001 0.000000000000000E+000 5.000000000000000E+001 0.000000000000000E+000 5.000000000000000E+001 0.000000000000000E+000 

8.000000000000000E-002 1.164455566757957E-001 7.175841967138810E+001 2.570890681823464E-002 -1.254379019525919E+002 9.527026093521082E-001 -2.741390910230217E+001 2.380693521930630E-002 6.437123344606110E+001 
                2.570890681851721E-002 -1.254379019470645E+002 1.425551973887660E-001 6.424090547870080E+001 2.688533320420904E-002 4.435589385917518E+001 9.521429697052605E-001 -2.769303956055530E+001 
                9.527026104676711E-001 -2.741390902686165E+001 2.688533320261164E-002 4.435589386190693E+001 1.389053823434355E-001 6.432457866597861E+001 2.567496592403105E-002 -1.254108890293582E+002 
                2.380693521970310E-002 6.437123344767481E+001 9.521429710462901E-001 -2.769303952489071E+001 2.567496592915654E-002 -1.254108890236849E+002 1.195794014521838E-001 7.093118311974291E+001 
! Port Impedance  5.000000000000000E+001 0.000000000000000E+000 5.000000000000000E+001 0.000000000000000E+000 5.000000000000000E+001 0.000000000000000E+000 5.000000000000000E+001 0.000000000000000E+000 

9.000000000000000E-002 1.248383394249739E-001 6.652277891547992E+001 2.853792711989885E-002 -1.295150203543053E+002 9.505993218963642E-001 -3.091944142433685E+001 2.614874389182618E-002 6.109319715437342E+001 
                2.853792711865736E-002 -1.295150203481326E+002 1.538443600543322E-001 6.015437272673179E+001 2.974300996354914E-002 3.923692342057694E+001 9.499451405964781E-001 -3.123043399028439E+001 
                9.505993227069772E-001 -3.091944134483255E+001 2.974300996002660E-002 3.923692342304183E+001 1.498647050460173E-001 6.021277567914759E+001 2.849143889882683E-002 -1.294781511402742E+002 
                2.614874389212860E-002 6.109319715951869E+001 9.499451417334810E-001 -3.123043394541711E+001 2.849143890267607E-002 -1.294781511289182E+002 1.283446308973977E-001 6.569467063379210E+001 
! Port Impedance  5.000000000000000E+001 0.000000000000000E+000 5.000000000000000E+001 0.000000000000000E+000 5.000000000000000E+001 0.000000000000000E+000 5.000000000000000E+001 0.000000000000000E+000 

1.000000000000000E-001 1.340734806737006E-001 6.172772398052931E+001 3.127161482249970E-002 -1.335183125593239E+002 9.473490207586914E-001 -3.444108942477264E+001 2.830152674664600E-002 5.796069860520123E+001 
                3.127161482039701E-002 -1.335183125589302E+002 1.656258868363550E-001 5.627677298207979E+001 3.246310759936199E-002 3.406933847898831E+001 9.466378444755174E-001 -3.478554681525773E+001 
                9.473490204216157E-001 -3.444108941787987E+001 3.246310759675056E-002 3.406933847771710E+001 1.613909302117236E-001 5.629577046272655E+001 3.121011778147789E-002 -1.334688617583084E+002 
                2.830152674587205E-002 5.796069861053101E+001 9.466378442819479E-001 -3.478554680339900E+001 3.121011777965672E-002 -1.334688617512419E+002 1.378767582307179E-001 6.081249671320372E+001 
! Port Impedance  5.000000000000000E+001 0.000000000000000E+000 5.000000000000000E+001 0.000000000000000E+000 5.000000000000000E+001 0.000000000000000E+000 5.000000000000000E+001 0.000000000000000E+000 

1.100000000000000E-001 1.426652433559739E-001 5.740206017503694E+001 3.391725336939219E-002 -1.374276600428214E+002 9.449308154041648E-001 -3.795332784961538E+001 3.025978483055405E-002 5.499095026642985E+001 
                3.391725336890049E-002 -1.374276600432704E+002 1.763464262100312E-001 5.272874946894439E+001 3.505492848059969E-002 2.884524176933186E+001 9.441390683406751E-001 -3.832763031042703E+001 
                9.449308153410704E-001 -3.795332784944102E+001 3.505492848000940E-002 2.884524176852646E+001 1.718692869740273E-001 5.271925079023396E+001 3.383842536320853E-002 -1.373629263843717E+002 
                3.025978482981355E-002 5.499095026848315E+001 9.441390683006454E-001 -3.832763030930992E+001 3.383842536267331E-002 -1.373629263836795E+002 1.466289662253844E-001 5.638001035756066E+001 
! Port Impedance  5.000000000000000E+001 0.000000000000000E+000 5.000000000000000E+001 0.000000000000000E+000 5.000000000000000E+001 0.000000000000000E+000 5.000000000000000E+001 0.000000000000000E+000 

1.200000000000000E-001 1.494902480887616E-001 5.313176501491954E+001 3.647459956613253E-002 -1.412390072348173E+002 9.426152313719628E-001 -4.143503102006704E+001 3.201578782749594E-002 5.219254883521088E+001 
                3.647459956619319E-002 -1.412390072350165E+002 1.851636762653893E-001 4.924819441757073E+001 3.752022150494951E-002 2.357441522636128E+001 9.417458295781636E-001 -4.183868327853102E+001 
                9.426152313785543E-001 -4.143503101992152E+001 3.752022150526124E-002 2.357441522640775E+001 1.804528985470710E-001 4.922657133973838E+001 3.637622918028161E-002 -1.411558940396792E+002 
                3.201578782779398E-002 5.219254883538925E+001 9.417458295837691E-001 -4.183868327856128E+001 3.637622918052742E-002 -1.411558940401800E+002 1.535988553740169E-001 5.207852499559056E+001 
! Port Impedance  5.000000000000000E+001 0.000000000000000E+000 5.000000000000000E+001 0.000000000000000E+000 5.000000000000000E+001 0.000000000000000E+000 5.000000000000000E+001 0.000000000000000E+000 

1.300000000000000E-001 1.559611276625673E-001 4.894105568895334E+001 3.894928584918228E-002 -1.449528287593090E+002 9.403514233171727E-001 -4.489272162677710E+001 3.356718811565280E-002 4.956561177089488E+001 
                3.894928584923146E-002 -1.449528287594090E+002 1.934917766355255E-001 4.569991665508309E+001 3.985841685072686E-002 1.825696377448670E+001 9.394125499467042E-001 -4.532509843684798E+001 
                9.403514233318917E-001 -4.489272162666288E+001 3.985841685124166E-002 1.825696377461581E+001 1.886259469083257E-001 4.565358207843562E+001 3.882939325183096E-002 -1.448480239366245E+002 
                3.356718811611591E-002 4.956561177091528E+001 9.394125499565801E-001 -4.532509843684247E+001 3.882939325197425E-002 -1.448480239369724E+002 1.602212103091175E-001 4.782344516207247E+001 
! Port Impedance  5.000000000000000E+001 0.000000000000000E+000 5.000000000000000E+001 0.000000000000000E+000 5.000000000000000E+001 0.000000000000000E+000 5.000000000000000E+001 0.000000000000000E+000 

1.400000000000000E-001 1.617778406457562E-001 4.488314259981845E+001 4.134945332001655E-002 -1.485689448938780E+002 9.381592341484601E-001 -4.832989240120274E+001 3.491733954446486E-002 4.711463794444557E+001 
                4.134945331976476E-002 -1.485689448938771E+002 2.009611287403909E-001 4.219145029546327E+001 4.207157927952946E-002 1.288884542375680E+001 9.371613107360163E-001 -4.879041638716475E+001 
                9.381592341521960E-001 -4.832989240124327E+001 4.207157927985804E-002 1.288884542369607E+001 1.959872857360537E-001 4.212053971056444E+001 4.120638889546718E-002 -1.484389241398937E+002 
                3.491733954435174E-002 4.711463794449540E+001 9.371613107399390E-001 -4.879041638709981E+001 4.120638889527606E-002 -1.484389241398424E+002 1.661498781255082E-001 4.369931839579997E+001 
! Port Impedance  5.000000000000000E+001 0.000000000000000E+000 5.000000000000000E+001 0.000000000000000E+000 5.000000000000000E+001 0.000000000000000E+000 5.000000000000000E+001 0.000000000000000E+000 

1.500000000000000E-001 1.668699347098071E-001 4.093249025496077E+001 4.368681786965363E-002 -1.520868377542409E+002 9.360850069885706E-001 -5.174965366820720E+001 3.607099995573154E-002 4.485075868399903E+001 
                4.368681786902692E-002 -1.520868377544942E+002 2.074885729956384E-001 3.870165561114133E+001 4.416525065073749E-002 7.461567694407827E+000 9.350411702514666E-001 -5.223790461854969E+001 
                9.360850069819908E-001 -5.174965366811030E+001 4.416525065122557E-002 7.461567694339005E+000 2.024549241149977E-001 3.860563091499702E+001 4.351933094486676E-002 -1.519279159919865E+002 
                3.607099995539777E-002 4.485075868403406E+001 9.350411702523165E-001 -5.223790461849975E+001 4.351933094466284E-002 -1.519279159919380E+002 1.713049975399284E-001 3.968274687212279E+001 
! Port Impedance  5.000000000000000E+001 0.000000000000000E+000 5.000000000000000E+001 0.000000000000000E+000 5.000000000000000E+001 0.000000000000000E+000 5.000000000000000E+001 0.000000000000000E+000 

1.600000000000000E-001 1.711980928651794E-001 3.707831773143584E+001 4.597432009691196E-002 -1.555075282450721E+002 9.341582436924286E-001 -5.515460056821485E+001 3.703575970944359E-002 4.278851614245557E+001 
                4.597432009599581E-002 -1.555075282459751E+002 2.130380728361480E-001 3.521747645773880E+001 4.614628672794608E-002 1.966821490522833E+000 9.330831319288505E-001 -5.567030556371477E+001 
                9.341582436826783E-001 -5.515460056777834E+001 4.614628672916532E-002 1.966821490565974E+000 2.079946752408293E-001 3.509573715804817E+001 4.578168276027848E-002 -1.553158994546166E+002 
                3.703575970938012E-002 4.278851614255110E+001 9.330831319286904E-001 -5.567030556364448E+001 4.578168276016829E-002 -1.553158994548176E+002 1.756488199574813E-001 3.576320942585060E+001 
! Port Impedance  5.000000000000000E+001 0.000000000000000E+000 5.000000000000000E+001 0.000000000000000E+000 5.000000000000000E+001 0.000000000000000E+000 5.000000000000000E+001 0.000000000000000E+000 

1.700000000000000E-001 1.747395432193621E-001 3.333550857922896E+001 4.822370236157814E-002 -1.588342074702312E+002 9.323736839733958E-001 -5.854624420019374E+001 3.782394341919609E-002 4.094269234420746E+001 
                4.822370236058354E-002 -1.588342074713806E+002 2.175867579504366E-001 3.173923586000626E+001 4.802191404548439E-002 -3.599486361249584E+000 9.312816343989243E-001 -5.908918575738760E+001 
                9.323736839645062E-001 -5.854624419957837E+001 4.802191404710937E-002 -3.599486361089022E+000 2.125844598086168E-001 3.159121214243305E+001 4.800586786806608E-002 -1.586060082144738E+002 
                3.782394341933171E-002 4.094269234434731E+001 9.312816343967122E-001 -5.908918575727751E+001 4.800586786791581E-002 -1.586060082148243E+002 1.791681540985282E-001 3.195105332306324E+001 
! Port Impedance  5.000000000000000E+001 0.000000000000000E+000 5.000000000000000E+001 0.000000000000000E+000 5.000000000000000E+001 0.000000000000000E+000 5.000000000000000E+001 0.000000000000000E+000 

1.800000000000000E-001 1.774807863553504E-001 2.970515018207358E+001 5.044999108353408E-002 -1.620704257091034E+002 9.307431033414182E-001 -6.192652429447848E+001 3.845014318946210E-002 3.932993228099217E+001 
                5.044999108271567E-002 -1.620704257100516E+002 2.211112555029585E-001 2.825875831884208E+001 4.980220611335769E-002 -9.244499849671611E+000 9.296492579835710E-001 -6.249660028614536E+001 
                9.307431033345305E-001 -6.192652429388413E+001 4.980220611470453E-002 -9.244499849403752E+000 2.162019597408966E-001 2.808385282420597E+001 5.020766434169591E-002 -1.618018729437030E+002 
                3.845014318962680E-002 3.932993228108167E+001 9.296492579791579E-001 -6.249660028603043E+001 5.020766434152589E-002 -1.618018729440018E+002 1.818483920600296E-001 2.824540271096773E+001 
! Port Impedance  5.000000000000000E+001 0.000000000000000E+000 5.000000000000000E+001 0.000000000000000E+000 5.000000000000000E+001 0.000000000000000E+000 5.000000000000000E+001 0.000000000000000E+000 

1.900000000000000E-001 1.794004369709342E-001 2.617653298331731E+001 5.267214675008292E-002 -1.652208067633437E+002 9.292932275994731E-001 -6.529814356945434E+001 3.893129622106448E-002 3.796997026310456E+001 
